name,type,start_time,duration,"data"
"TX","data",0.4565213,8.246e-05,0x61
"TX","data",0.45660808,8.246e-05,0x6E
"TX","data",0.4566949,8.246e-05,0x78
"TX","data",0.4567817,8.246e-05,0x37
"TX","data",0.45686848,8.246e-05,0x36
"TX","data",0.45695528,8.246e-05,0x32
"TX","data",0.45704208,8.246e-05,0x35
"TX","data",0.45712888,8.246e-05,0x5F
"TX","data",0.45721568,8.246e-05,0x69
"TX","data",0.45730248,8.246e-05,0x6E
"TX","data",0.45738928,8.246e-05,0x69
"TX","data",0.45747608,8.246e-05,0x74
"TX","data",0.45756288,8.246e-05,0x3A
"TX","data",0.45764968,8.246e-05,0x20
"TX","data",0.45773648,8.246e-05,0x4F
"TX","data",0.45782328,8.246e-05,0x54
"TX","data",0.45791008,8.246e-05,0x47
"TX","data",0.45799688,8.246e-05,0x5F
"TX","data",0.45808368,8.246e-05,0x4F
"TX","data",0.45817048,8.246e-05,0x4E
"TX","data",0.45825728,8.246e-05,0x20
"TX","data",0.45834408,8.246e-05,0x3D
"TX","data",0.45843088,8.246e-05,0x20
"TX","data",0.45851768,8.246e-05,0x31
"TX","data",0.45860448,8.246e-05,0x20
"TX","data",0.45869128,8.246e-05,0x2D
"TX","data",0.45877808,8.246e-05,0x3E
"TX","data",0.45886488,8.246e-05,0x20
"TX","data",0.45895168,8.246e-05,0x56
"TX","data",0.45903848,8.246e-05,0x42
"TX","data",0.45912528,8.246e-05,0x55
"TX","data",0.45921208,8.246e-05,0x53
"TX","data",0.45929888,8.246e-05,0x20
"TX","data",0.45938568,8.246e-05,0x4F
"TX","data",0.45947248,8.246e-05,0x46
"TX","data",0.45955928,8.246e-05,0x46
"TX","data",0.45964608,8.246e-05,0x0D
"TX","data",0.45973288,8.246e-05,0x0A
"TX","data",1.60661978,8.246e-05,0x61
"TX","data",1.60670658,8.246e-05,0x6E
"TX","data",1.60679338,8.246e-05,0x78
"TX","data",1.60688018,8.246e-05,0x37
"TX","data",1.60696698,8.246e-05,0x36
"TX","data",1.60705378,8.246e-05,0x32
"TX","data",1.60714058,8.246e-05,0x35
"TX","data",1.60722738,8.246e-05,0x5F
"TX","data",1.60731418,8.246e-05,0x69
"TX","data",1.60740098,8.246e-05,0x6E
"TX","data",1.60748778,8.246e-05,0x69
"TX","data",1.60757458,8.246e-05,0x74
"TX","data",1.60766138,8.246e-05,0x3A
"TX","data",1.60774818,8.246e-05,0x20
"TX","data",1.60783498,8.246e-05,0x50
"TX","data",1.60792178,8.246e-05,0x6F
"TX","data",1.60800858,8.246e-05,0x77
"TX","data",1.60809538,8.246e-05,0x65
"TX","data",1.60818218,8.246e-05,0x72
"TX","data",1.60826898,8.246e-05,0x69
"TX","data",1.60835578,8.246e-05,0x6E
"TX","data",1.60844256,8.246e-05,0x67
"TX","data",1.60852936,8.246e-05,0x20
"TX","data",1.60861616,8.246e-05,0x6F
"TX","data",1.60870296,8.246e-05,0x6E
"TX","data",1.60878976,8.246e-05,0x20
"TX","data",1.60887656,8.246e-05,0x61
"TX","data",1.60896336,8.246e-05,0x6E
"TX","data",1.60905016,8.246e-05,0x78
"TX","data",1.60913696,8.246e-05,0x37
"TX","data",1.60922376,8.246e-05,0x36
"TX","data",1.60931056,8.246e-05,0x32
"TX","data",1.60939736,8.246e-05,0x35
"TX","data",1.60948416,8.246e-05,0x2E
"TX","data",1.60957096,8.246e-05,0x2E
"TX","data",1.60965776,8.246e-05,0x2E
"TX","data",1.60974456,8.246e-05,0x0D
"TX","data",1.60983136,8.246e-05,0x0A
"TX","data",1.71662866,8.246e-05,0x61
"TX","data",1.71671546,8.246e-05,0x6E
"TX","data",1.71680226,8.246e-05,0x78
"TX","data",1.71688906,8.246e-05,0x37
"TX","data",1.71697586,8.246e-05,0x36
"TX","data",1.71706266,8.246e-05,0x32
"TX","data",1.71714946,8.246e-05,0x35
"TX","data",1.71723626,8.246e-05,0x5F
"TX","data",1.71732306,8.246e-05,0x70
"TX","data",1.71740986,8.246e-05,0x6F
"TX","data",1.71749664,8.246e-05,0x77
"TX","data",1.71758344,8.246e-05,0x65
"TX","data",1.71767024,8.246e-05,0x72
"TX","data",1.71775704,8.246e-05,0x5F
"TX","data",1.71784384,8.246e-05,0x6F
"TX","data",1.71793064,8.246e-05,0x6E
"TX","data",1.71801744,8.246e-05,0x5F
"TX","data",1.71810424,8.246e-05,0x69
"TX","data",1.71819104,8.246e-05,0x6E
"TX","data",1.71827784,8.246e-05,0x69
"TX","data",1.71836464,8.246e-05,0x74
"TX","data",1.71845144,8.246e-05,0x3A
"TX","data",1.71853824,8.246e-05,0x20
"TX","data",1.71862504,8.246e-05,0x49
"TX","data",1.71871184,8.246e-05,0x6E
"TX","data",1.71879864,8.246e-05,0x69
"TX","data",1.71888544,8.246e-05,0x74
"TX","data",1.71897224,8.246e-05,0x20
"TX","data",1.71905904,8.246e-05,0x69
"TX","data",1.71914584,8.246e-05,0x6E
"TX","data",1.71923264,8.246e-05,0x74
"TX","data",1.71931944,8.246e-05,0x65
"TX","data",1.71940624,8.246e-05,0x72
"TX","data",1.71949304,8.246e-05,0x66
"TX","data",1.71957984,8.246e-05,0x61
"TX","data",1.71966664,8.246e-05,0x63
"TX","data",1.71975344,8.246e-05,0x65
"TX","data",1.71984024,8.246e-05,0x2E
"TX","data",1.71992704,8.246e-05,0x0D
"TX","data",1.72001384,8.246e-05,0x0A
"TX","data",1.72069986,8.246e-05,0x61
"TX","data",1.72078666,8.246e-05,0x6E
"TX","data",1.72087346,8.246e-05,0x78
"TX","data",1.72096026,8.246e-05,0x37
"TX","data",1.72104704,8.246e-05,0x36
"TX","data",1.72113384,8.246e-05,0x32
"TX","data",1.72122064,8.246e-05,0x35
"TX","data",1.72130744,8.246e-05,0x5F
"TX","data",1.72139424,8.246e-05,0x70
"TX","data",1.72148104,8.246e-05,0x6F
"TX","data",1.72156784,8.246e-05,0x77
"TX","data",1.72165464,8.246e-05,0x65
"TX","data",1.72174144,8.246e-05,0x72
"TX","data",1.72182824,8.246e-05,0x5F
"TX","data",1.72191504,8.246e-05,0x6F
"TX","data",1.72200184,8.246e-05,0x6E
"TX","data",1.72208864,8.246e-05,0x5F
"TX","data",1.72217544,8.246e-05,0x69
"TX","data",1.72226224,8.246e-05,0x6E
"TX","data",1.72234904,8.246e-05,0x69
"TX","data",1.72243584,8.246e-05,0x74
"TX","data",1.72252264,8.246e-05,0x3A
"TX","data",1.72260944,8.246e-05,0x20
"TX","data",1.72269624,8.246e-05,0x46
"TX","data",1.72278304,8.246e-05,0x69
"TX","data",1.72286984,8.246e-05,0x72
"TX","data",1.72295664,8.246e-05,0x6D
"TX","data",1.72304344,8.246e-05,0x77
"TX","data",1.72313024,8.246e-05,0x61
"TX","data",1.72321704,8.246e-05,0x72
"TX","data",1.72330384,8.246e-05,0x65
"TX","data",1.72339064,8.246e-05,0x3A
"TX","data",1.72347744,8.246e-05,0x20
"TX","data",1.72356424,8.246e-05,0x76
"TX","data",1.72365104,8.246e-05,0x65
"TX","data",1.72373784,8.246e-05,0x72
"TX","data",1.72382464,8.246e-05,0x20
"TX","data",1.72391144,8.246e-05,0x30
"TX","data",1.72399824,8.246e-05,0x78
"TX","data",1.72408504,8.246e-05,0x31
"TX","data",1.72417184,8.246e-05,0x33
"TX","data",1.72425862,8.246e-05,0x2C
"TX","data",1.72434542,8.246e-05,0x20
"TX","data",1.72443222,8.246e-05,0x72
"TX","data",1.72451902,8.246e-05,0x65
"TX","data",1.72460582,8.246e-05,0x76
"TX","data",1.72469262,8.246e-05,0x20
"TX","data",1.72477942,8.246e-05,0x30
"TX","data",1.72486622,8.246e-05,0x30
"TX","data",1.72495302,8.246e-05,0x2E
"TX","data",1.72503982,8.246e-05,0x0D
"TX","data",1.72512662,8.246e-05,0x0A
"TX","data",1.72521342,8.246e-05,0x61
"TX","data",1.72530022,8.246e-05,0x6E
"TX","data",1.72538702,8.246e-05,0x78
"TX","data",1.72547382,8.246e-05,0x37
"TX","data",1.72556062,8.246e-05,0x36
"TX","data",1.72564742,8.246e-05,0x32
"TX","data",1.72573422,8.246e-05,0x35
"TX","data",1.72582102,8.246e-05,0x5F
"TX","data",1.72590782,8.246e-05,0x69
"TX","data",1.72599462,8.246e-05,0x6E
"TX","data",1.72608142,8.246e-05,0x69
"TX","data",1.72616822,8.246e-05,0x74
"TX","data",1.72625502,8.246e-05,0x3A
"TX","data",1.72634182,8.246e-05,0x20
"TX","data",1.72642862,8.246e-05,0x50
"TX","data",1.72651542,8.246e-05,0x6F
"TX","data",1.72660222,8.246e-05,0x77
"TX","data",1.72668902,8.246e-05,0x65
"TX","data",1.72677582,8.246e-05,0x72
"TX","data",1.72686262,8.246e-05,0x69
"TX","data",1.72694942,8.246e-05,0x6E
"TX","data",1.72703622,8.246e-05,0x67
"TX","data",1.72712302,8.246e-05,0x20
"TX","data",1.72720982,8.246e-05,0x6F
"TX","data",1.72729662,8.246e-05,0x6E
"TX","data",1.72738342,8.246e-05,0x20
"TX","data",1.72747022,8.246e-05,0x61
"TX","data",1.727557,8.246e-05,0x6E
"TX","data",1.7276438,8.246e-05,0x78
"TX","data",1.7277306,8.246e-05,0x37
"TX","data",1.7278174,8.246e-05,0x36
"TX","data",1.7279042,8.246e-05,0x32
"TX","data",1.727991,8.246e-05,0x35
"TX","data",1.7280778,8.246e-05,0x20
"TX","data",1.7281646,8.246e-05,0x73
"TX","data",1.7282514,8.246e-05,0x75
"TX","data",1.7283382,8.246e-05,0x63
"TX","data",1.728425,8.246e-05,0x63
"TX","data",1.7285118,8.246e-05,0x65
"TX","data",1.7285986,8.246e-05,0x73
"TX","data",1.7286854,8.246e-05,0x73
"TX","data",1.7287722,8.246e-05,0x66
"TX","data",1.728859,8.246e-05,0x75
"TX","data",1.7289458,8.246e-05,0x6C
"TX","data",1.7290326,8.246e-05,0x6C
"TX","data",1.7291194,8.246e-05,0x2E
"TX","data",1.7292062,8.246e-05,0x0D
"TX","data",1.729293,8.246e-05,0x0A
"TX","data",1.93182562,8.246e-05,0x61
"TX","data",1.93191242,8.246e-05,0x6E
"TX","data",1.93199922,8.246e-05,0x78
"TX","data",1.93208602,8.246e-05,0x37
"TX","data",1.93217282,8.246e-05,0x36
"TX","data",1.93225962,8.246e-05,0x32
"TX","data",1.93234642,8.246e-05,0x35
"TX","data",1.93243322,8.246e-05,0x5F
"TX","data",1.93252002,8.246e-05,0x72
"TX","data",1.93260682,8.246e-05,0x65
"TX","data",1.93269362,8.246e-05,0x61
"TX","data",1.93278042,8.246e-05,0x64
"TX","data",1.93286722,8.246e-05,0x5F
"TX","data",1.93295402,8.246e-05,0x73
"TX","data",1.93304082,8.246e-05,0x79
"TX","data",1.93312762,8.246e-05,0x73
"TX","data",1.93321442,8.246e-05,0x74
"TX","data",1.93330122,8.246e-05,0x65
"TX","data",1.93338802,8.246e-05,0x6D
"TX","data",1.93347482,8.246e-05,0x5F
"TX","data",1.93356162,8.246e-05,0x73
"TX","data",1.93364842,8.246e-05,0x74
"TX","data",1.93373522,8.246e-05,0x61
"TX","data",1.93382202,8.246e-05,0x74
"TX","data",1.93390882,8.246e-05,0x75
"TX","data",1.93399562,8.246e-05,0x73
"TX","data",1.93408242,8.246e-05,0x3A
"TX","data",1.93416922,8.246e-05,0x20
"TX","data",1.93425602,8.246e-05,0x61
"TX","data",1.93434282,8.246e-05,0x6E
"TX","data",1.93442962,8.246e-05,0x78
"TX","data",1.93451642,8.246e-05,0x3A
"TX","data",1.93460322,8.246e-05,0x20
"TX","data",1.93469,8.246e-05,0x2D
"TX","data",1.93477682,8.246e-05,0x20
"TX","data",1.9348636,8.246e-05,0x56
"TX","data",1.9349504,8.246e-05,0x43
"TX","data",1.9350372,8.246e-05,0x4F
"TX","data",1.935124,8.246e-05,0x4E
"TX","data",1.9352108,8.246e-05,0x4E
"TX","data",1.9352976,8.246e-05,0x20
"TX","data",1.9353844,8.246e-05,0x73
"TX","data",1.9354712,8.246e-05,0x74
"TX","data",1.935558,8.246e-05,0x61
"TX","data",1.9356448,8.246e-05,0x74
"TX","data",1.9357316,8.246e-05,0x75
"TX","data",1.9358184,8.246e-05,0x73
"TX","data",1.9359052,8.246e-05,0x20
"TX","data",1.935992,8.246e-05,0x4F
"TX","data",1.9360788,8.246e-05,0x4E
"TX","data",1.9361656,8.246e-05,0x0D
"TX","data",1.9362524,8.246e-05,0x0A
"TX","data",1.9363392,8.246e-05,0x61
"TX","data",1.936426,8.246e-05,0x6E
"TX","data",1.9365128,8.246e-05,0x78
"TX","data",1.9365996,8.246e-05,0x37
"TX","data",1.9366864,8.246e-05,0x36
"TX","data",1.9367732,8.246e-05,0x32
"TX","data",1.93686,8.246e-05,0x35
"TX","data",1.9369468,8.246e-05,0x5F
"TX","data",1.9370336,8.246e-05,0x72
"TX","data",1.9371204,8.246e-05,0x65
"TX","data",1.9372072,8.246e-05,0x61
"TX","data",1.937294,8.246e-05,0x64
"TX","data",1.9373808,8.246e-05,0x5F
"TX","data",1.9374676,8.246e-05,0x73
"TX","data",1.9375544,8.246e-05,0x79
"TX","data",1.9376412,8.246e-05,0x73
"TX","data",1.937728,8.246e-05,0x74
"TX","data",1.9378148,8.246e-05,0x65
"TX","data",1.9379016,8.246e-05,0x6D
"TX","data",1.9379884,8.246e-05,0x5F
"TX","data",1.9380752,8.246e-05,0x73
"TX","data",1.93816198,8.246e-05,0x74
"TX","data",1.9382488,8.246e-05,0x61
"TX","data",1.93833558,8.246e-05,0x74
"TX","data",1.93842238,8.246e-05,0x75
"TX","data",1.93850918,8.246e-05,0x73
"TX","data",1.93859598,8.246e-05,0x3A
"TX","data",1.93868278,8.246e-05,0x20
"TX","data",1.93876958,8.246e-05,0x61
"TX","data",1.93885638,8.246e-05,0x6E
"TX","data",1.93894318,8.246e-05,0x78
"TX","data",1.93902998,8.246e-05,0x3A
"TX","data",1.93911678,8.246e-05,0x20
"TX","data",1.93920358,8.246e-05,0x2D
"TX","data",1.93929038,8.246e-05,0x20
"TX","data",1.93937718,8.246e-05,0x56
"TX","data",1.93946398,8.246e-05,0x42
"TX","data",1.93955078,8.246e-05,0x55
"TX","data",1.93963758,8.246e-05,0x53
"TX","data",1.93972438,8.246e-05,0x20
"TX","data",1.93981118,8.246e-05,0x70
"TX","data",1.93989798,8.246e-05,0x6F
"TX","data",1.93998478,8.246e-05,0x77
"TX","data",1.94007158,8.246e-05,0x65
"TX","data",1.94015838,8.246e-05,0x72
"TX","data",1.94024518,8.246e-05,0x20
"TX","data",1.94033198,8.246e-05,0x70
"TX","data",1.94041878,8.246e-05,0x72
"TX","data",1.94050558,8.246e-05,0x6F
"TX","data",1.94059238,8.246e-05,0x76
"TX","data",1.94067918,8.246e-05,0x69
"TX","data",1.94076598,8.246e-05,0x64
"TX","data",1.94085278,8.246e-05,0x65
"TX","data",1.94093958,8.246e-05,0x72
"TX","data",1.94102638,8.246e-05,0x0D
"TX","data",1.94111318,8.246e-05,0x0A
"TX","data",1.94119998,8.246e-05,0x61
"TX","data",1.94128678,8.246e-05,0x6E
"TX","data",1.94137358,8.246e-05,0x78
"TX","data",1.94146038,8.246e-05,0x37
"TX","data",1.94154718,8.246e-05,0x36
"TX","data",1.94163398,8.246e-05,0x32
"TX","data",1.94172078,8.246e-05,0x35
"TX","data",1.94180758,8.246e-05,0x5F
"TX","data",1.94189438,8.246e-05,0x72
"TX","data",1.94198116,8.246e-05,0x65
"TX","data",1.94206796,8.246e-05,0x61
"TX","data",1.94215476,8.246e-05,0x64
"TX","data",1.94224156,8.246e-05,0x5F
"TX","data",1.94232836,8.246e-05,0x73
"TX","data",1.94241516,8.246e-05,0x79
"TX","data",1.94250196,8.246e-05,0x73
"TX","data",1.94258876,8.246e-05,0x74
"TX","data",1.94267556,8.246e-05,0x65
"TX","data",1.94276236,8.246e-05,0x6D
"TX","data",1.94284916,8.246e-05,0x5F
"TX","data",1.94293596,8.246e-05,0x73
"TX","data",1.94302276,8.246e-05,0x74
"TX","data",1.94310956,8.246e-05,0x61
"TX","data",1.94319636,8.246e-05,0x74
"TX","data",1.94328316,8.246e-05,0x75
"TX","data",1.94336996,8.246e-05,0x73
"TX","data",1.94345676,8.246e-05,0x3A
"TX","data",1.94354356,8.246e-05,0x20
"TX","data",1.94363036,8.246e-05,0x61
"TX","data",1.94371716,8.246e-05,0x6E
"TX","data",1.94380396,8.246e-05,0x78
"TX","data",1.94389076,8.246e-05,0x3A
"TX","data",1.94397756,8.246e-05,0x20
"TX","data",1.94406436,8.246e-05,0x2D
"TX","data",1.94415116,8.246e-05,0x20
"TX","data",1.94423796,8.246e-05,0x44
"TX","data",1.94432476,8.246e-05,0x61
"TX","data",1.94441156,8.246e-05,0x74
"TX","data",1.94449836,8.246e-05,0x61
"TX","data",1.94458516,8.246e-05,0x20
"TX","data",1.94467196,8.246e-05,0x52
"TX","data",1.94475876,8.246e-05,0x6F
"TX","data",1.94484556,8.246e-05,0x6C
"TX","data",1.94493236,8.246e-05,0x65
"TX","data",1.94501916,8.246e-05,0x3A
"TX","data",1.94510596,8.246e-05,0x20
"TX","data",1.94519276,8.246e-05,0x44
"TX","data",1.94527956,8.246e-05,0x46
"TX","data",1.94536636,8.246e-05,0x50
"TX","data",1.94545314,8.246e-05,0x0D
"TX","data",1.94553994,8.246e-05,0x0A
"TX","data",1.94562674,8.246e-05,0x61
"TX","data",1.94571354,8.246e-05,0x6E
"TX","data",1.94580034,8.246e-05,0x78
"TX","data",1.94588714,8.246e-05,0x37
"TX","data",1.94597394,8.246e-05,0x36
"TX","data",1.94606074,8.246e-05,0x32
"TX","data",1.94614754,8.246e-05,0x35
"TX","data",1.94623434,8.246e-05,0x5F
"TX","data",1.94632114,8.246e-05,0x72
"TX","data",1.94640794,8.246e-05,0x65
"TX","data",1.94649474,8.246e-05,0x61
"TX","data",1.94658154,8.246e-05,0x64
"TX","data",1.94666834,8.246e-05,0x5F
"TX","data",1.94675514,8.246e-05,0x73
"TX","data",1.94684194,8.246e-05,0x79
"TX","data",1.94692874,8.246e-05,0x73
"TX","data",1.94701554,8.246e-05,0x74
"TX","data",1.94710234,8.246e-05,0x65
"TX","data",1.94718914,8.246e-05,0x6D
"TX","data",1.94727594,8.246e-05,0x5F
"TX","data",1.94736274,8.246e-05,0x73
"TX","data",1.94744954,8.246e-05,0x74
"TX","data",1.94753634,8.246e-05,0x61
"TX","data",1.94762314,8.246e-05,0x74
"TX","data",1.94770994,8.246e-05,0x75
"TX","data",1.94779674,8.246e-05,0x73
"TX","data",1.94788354,8.246e-05,0x3A
"TX","data",1.94797034,8.246e-05,0x20
"TX","data",1.94805714,8.246e-05,0x61
"TX","data",1.94814394,8.246e-05,0x6E
"TX","data",1.94823074,8.246e-05,0x78
"TX","data",1.94831754,8.246e-05,0x3A
"TX","data",1.94840434,8.246e-05,0x20
"TX","data",1.94849114,8.246e-05,0x2D
"TX","data",1.94857794,8.246e-05,0x20
"TX","data",1.94866474,8.246e-05,0x44
"TX","data",1.94875154,8.246e-05,0x50
"TX","data",1.94883834,8.246e-05,0x20
"TX","data",1.94892512,8.246e-05,0x48
"TX","data",1.94901192,8.246e-05,0x50
"TX","data",1.94909872,8.246e-05,0x44
"TX","data",1.94918552,8.246e-05,0x20
"TX","data",1.94927232,8.246e-05,0x6C
"TX","data",1.94935912,8.246e-05,0x6F
"TX","data",1.94944592,8.246e-05,0x77
"TX","data",1.94953272,8.246e-05,0x0D
"TX","data",1.94961952,8.246e-05,0x0A
"TX","data",1.94970632,8.246e-05,0x61
"TX","data",1.94979312,8.246e-05,0x6E
"TX","data",1.94987992,8.246e-05,0x78
"TX","data",1.94996672,8.246e-05,0x37
"TX","data",1.95005352,8.246e-05,0x36
"TX","data",1.95014032,8.246e-05,0x32
"TX","data",1.95022712,8.246e-05,0x35
"TX","data",1.95031392,8.246e-05,0x5F
"TX","data",1.95040072,8.246e-05,0x69
"TX","data",1.95048752,8.246e-05,0x6E
"TX","data",1.95057432,8.246e-05,0x69
"TX","data",1.95066112,8.246e-05,0x74
"TX","data",1.95074792,8.246e-05,0x3A
"TX","data",1.95083472,8.246e-05,0x20
"TX","data",1.95092152,8.246e-05,0x4F
"TX","data",1.95100832,8.246e-05,0x54
"TX","data",1.95109512,8.246e-05,0x47
"TX","data",1.95118192,8.246e-05,0x5F
"TX","data",1.95126872,8.246e-05,0x4F
"TX","data",1.95135552,8.246e-05,0x4E
"TX","data",1.95144232,8.246e-05,0x20
"TX","data",1.95152912,8.246e-05,0x3D
"TX","data",1.95161592,8.246e-05,0x20
"TX","data",1.95170272,8.246e-05,0x30
"TX","data",1.95178952,8.246e-05,0x20
"TX","data",1.95187632,8.246e-05,0x2D
"TX","data",1.95196312,8.246e-05,0x3E
"TX","data",1.95204992,8.246e-05,0x20
"TX","data",1.95213672,8.246e-05,0x56
"TX","data",1.95222352,8.246e-05,0x42
"TX","data",1.95231032,8.246e-05,0x55
"TX","data",1.95239712,8.246e-05,0x53
"TX","data",1.9524839,8.246e-05,0x20
"TX","data",1.95257072,8.246e-05,0x4F
"TX","data",1.9526575,8.246e-05,0x4E
"TX","data",1.9527443,8.246e-05,0x0D
"TX","data",1.9528311,8.246e-05,0x0A
"TX","data",2.96854004,8.246e-05,0x61
"TX","data",2.96862684,8.246e-05,0x6E
"TX","data",2.96871364,8.246e-05,0x78
"TX","data",2.96880044,8.246e-05,0x37
"TX","data",2.96888724,8.246e-05,0x36
"TX","data",2.96897404,8.246e-05,0x32
"TX","data",2.96906084,8.246e-05,0x35
"TX","data",2.96914764,8.246e-05,0x5F
"TX","data",2.96923444,8.246e-05,0x77
"TX","data",2.96932124,8.246e-05,0x61
"TX","data",2.96940804,8.246e-05,0x69
"TX","data",2.96949484,8.246e-05,0x74
"TX","data",2.96958164,8.246e-05,0x5F
"TX","data",2.96966844,8.246e-05,0x68
"TX","data",2.96975524,8.246e-05,0x70
"TX","data",2.96984204,8.246e-05,0x64
"TX","data",2.96992884,8.246e-05,0x5F
"TX","data",2.97001564,8.246e-05,0x65
"TX","data",2.97010244,8.246e-05,0x76
"TX","data",2.97018924,8.246e-05,0x65
"TX","data",2.97027604,8.246e-05,0x6E
"TX","data",2.97036284,8.246e-05,0x74
"TX","data",2.97044964,8.246e-05,0x3A
"TX","data",2.97053644,8.246e-05,0x20
"TX","data",2.97062324,8.246e-05,0x57
"TX","data",2.97071004,8.246e-05,0x61
"TX","data",2.97079684,8.246e-05,0x69
"TX","data",2.97088364,8.246e-05,0x74
"TX","data",2.97097044,8.246e-05,0x69
"TX","data",2.97105724,8.246e-05,0x6E
"TX","data",2.97114404,8.246e-05,0x67
"TX","data",2.97123084,8.246e-05,0x20
"TX","data",2.97131764,8.246e-05,0x66
"TX","data",2.97140444,8.246e-05,0x6F
"TX","data",2.97149122,8.246e-05,0x72
"TX","data",2.97157802,8.246e-05,0x20
"TX","data",2.97166482,8.246e-05,0x68
"TX","data",2.97175162,8.246e-05,0x64
"TX","data",2.97183842,8.246e-05,0x6D
"TX","data",2.97192522,8.246e-05,0x69
"TX","data",2.97201202,8.246e-05,0x20
"TX","data",2.97209882,8.246e-05,0x68
"TX","data",2.97218562,8.246e-05,0x6F
"TX","data",2.97227242,8.246e-05,0x74
"TX","data",2.97235922,8.246e-05,0x20
"TX","data",2.97244602,8.246e-05,0x70
"TX","data",2.97253282,8.246e-05,0x6C
"TX","data",2.97261962,8.246e-05,0x75
"TX","data",2.97270642,8.246e-05,0x67
"TX","data",2.97279322,8.246e-05,0x20
"TX","data",2.97288002,8.246e-05,0x65
"TX","data",2.97296682,8.246e-05,0x76
"TX","data",2.97305362,8.246e-05,0x65
"TX","data",2.97314042,8.246e-05,0x6E
"TX","data",2.97322722,8.246e-05,0x74
"TX","data",2.97331402,8.246e-05,0x2E
"TX","data",2.97340082,8.246e-05,0x2E
"TX","data",2.97348762,8.246e-05,0x2E
"TX","data",2.97357442,8.246e-05,0x0D
"TX","data",2.97366122,8.246e-05,0x0A
"TX","data",3.59233576,8.246e-05,0x61
"TX","data",3.59242256,8.246e-05,0x6E
"TX","data",3.59250936,8.246e-05,0x78
"TX","data",3.59259616,8.246e-05,0x37
"TX","data",3.59268296,8.246e-05,0x36
"TX","data",3.59276976,8.246e-05,0x32
"TX","data",3.59285656,8.246e-05,0x35
"TX","data",3.59294336,8.246e-05,0x5F
