name,type,start_time,duration,"ack","address","read","data"
"I2C","start",0.26541314,2e-08,,,,
"I2C","start",0.26542344,1.99999999e-08,,,,
"I2C","stop",0.26542354,2e-08,,,,
"I2C","start",0.26544646,2e-08,,,,
"I2C","address",0.26547824,0.00028006,true,0x08,false,
"I2C","data",0.26576444,0.00028006,true,,,0x4F
"I2C","data",0.26605064,0.00028006,true,,,0x00
"I2C","stop",0.2663626,2e-08,,,,
"I2C","start",0.2663831,2e-08,,,,
"I2C","address",0.26641486,0.00028008,true,0x08,false,
"I2C","data",0.26670106,0.00028008,true,,,0x50
"I2C","data",0.26698726,0.00028008,true,,,0x0F
"I2C","stop",0.26729922,2e-08,,,,
"I2C","start",0.26732144,2e-08,,,,
"I2C","address",0.26735322,0.00028008,true,0x08,false,
"I2C","data",0.26763942,0.00028006,true,,,0x4C
"I2C","data",0.26792562,0.00028006,true,,,0x05
"I2C","stop",0.26823758,2.00000001e-08,,,,
"I2C","start",0.26825944,1.99999999e-08,,,,
"I2C","address",0.26829122,0.00028006,true,0x08,false,
"I2C","data",0.26857742,0.00028006,true,,,0x4D
"I2C","data",0.26886362,0.00028006,true,,,0x03
"I2C","stop",0.26917558,2e-08,,,,
"I2C","start",0.26919744,1.99999999e-08,,,,
"I2C","address",0.26922922,0.00028006,true,0x08,false,
"I2C","data",0.26951542,0.00028006,true,,,0x52
"I2C","data",0.26980162,0.00028006,true,,,0x09
"I2C","stop",0.27011358,2e-08,,,,
"I2C","start",0.27013404,2e-08,,,,
"I2C","address",0.2701658,0.00028008,true,0x08,false,
"I2C","data",0.270452,0.00028008,true,,,0x53
"I2C","data",0.2707382,0.00028008,true,,,0x0F
"I2C","stop",0.27105016,1.99999999e-08,,,,
"I2C","start",0.28134426,2e-08,,,,
"I2C","address",0.28137602,0.00028008,true,0x08,false,
"I2C","data",0.28166222,0.00028006,true,,,0x9C
"I2C","data",0.28194842,0.00028006,true,,,0x80
"I2C","stop",0.28226038,2e-08,,,,
"I2C","start",0.28228104,2e-08,,,,
"I2C","address",0.28231282,0.00028006,true,0x08,false,
"I2C","data",0.28259902,0.00028006,true,,,0x9E
"I2C","data",0.28288522,0.00028006,true,,,0x20
"I2C","stop",0.28319718,2e-08,,,,
"I2C","start",0.29334398,2e-08,,,,
"I2C","address",0.29337576,0.00028006,true,0x08,false,
"I2C","data",0.29366196,0.00028006,true,,,0x42
"I2C","data",0.29394816,0.00028006,true,,,0x02
"I2C","stop",0.29426012,1.99999999e-08,,,,
"I2C","start",0.30434396,1.99999999e-08,,,,
"I2C","address",0.30437574,0.00028006,true,0x08,false,
"I2C","data",0.30466194,0.00028006,true,,,0x94
"I2C","data",0.30494814,0.00028006,true,,,0xA0
"I2C","stop",0.3052601,2.00000001e-08,,,,
"I2C","start",0.3052782,1.99999999e-08,,,,
"I2C","address",0.30530996,0.00028008,true,0x08,false,
"I2C","data",0.30559616,0.00028008,true,,,0x3B
"I2C","data",0.30588236,0.00028008,true,,,0x0F
"I2C","stop",0.30619432,2e-08,,,,
"I2C","start",0.30621484,2e-08,,,,
"I2C","address",0.3062466,0.00028006,true,0x08,false,
"I2C","data",0.3065328,0.00028006,true,,,0x35
"I2C","data",0.306819,0.00028006,true,,,0x0F
"I2C","stop",0.30713096,2e-08,,,,
"I2C","start",0.395783,1.99999999e-08,,,,
"I2C","address",0.3957925,8.068e-05,true,0x08,false,
"I2C","data",0.395878,8.068e-05,true,,,0x42
"I2C","data",0.3959635,8.068e-05,true,,,0x01
"I2C","stop",0.39605374,1.99999999e-08,,,,
"I2C","start",1.71117426,1.99999999e-08,,,,
"I2C","address",1.71118376,8.068e-05,true,0x3F,false,
"I2C","data",1.71126926,8.068e-05,true,,,0x39
"I2C","data",1.71135476,8.068e-05,true,,,0x00
"I2C","stop",1.711445,1.99999997e-08,,,,
"I2C","start",1.7114509,1.99999999e-08,,,,
"I2C","address",1.7114604,8.068e-05,true,0x3F,false,
"I2C","data",1.7115459,8.07e-05,true,,,0x3F
"I2C","data",1.7116314,8.068e-05,true,,,0x80
"I2C","stop",1.71172166,1.99999999e-08,,,,
"I2C","start",1.7117271,1.99999999e-08,,,,
"I2C","address",1.71173662,8.068e-05,true,0x3F,false,
"I2C","data",1.71182212,8.068e-05,true,,,0x05
"I2C","stop",1.71191236,2.00000002e-08,,,,
"I2C","start",1.71191734,1.99999999e-08,,,,
"I2C","address",1.71192684,8.068e-05,true,0x3F,true,
"I2C","data",1.71201234,8.068e-05,false,,,0x00
"I2C","stop",1.7121026,2.00000002e-08,,,,
"I2C","start",1.7121188,1.99999999e-08,,,,
"I2C","address",1.7121283,8.07e-05,true,0x3F,false,
"I2C","data",1.7122138,8.07e-05,true,,,0x05
"I2C","stop",1.71230406,2.00000002e-08,,,,
"I2C","start",1.71230906,1.99999999e-08,,,,
"I2C","address",1.71231856,8.068e-05,true,0x3F,true,
"I2C","data",1.71240406,8.068e-05,false,,,0x00
"I2C","stop",1.7124943,2.00000002e-08,,,,
"I2C","start",1.71316562,1.99999999e-08,,,,
"I2C","address",1.71317514,8.068e-05,true,0x3F,false,
"I2C","data",1.71326064,8.068e-05,true,,,0x05
"I2C","stop",1.71335088,1.99999999e-08,,,,
"I2C","start",1.71335596,2.00000002e-08,,,,
"I2C","address",1.71336546,8.068e-05,true,0x3F,true,
"I2C","data",1.71345096,8.068e-05,false,,,0x00
"I2C","stop",1.71354122,1.99999999e-08,,,,
"I2C","start",1.71421252,1.99999999e-08,,,,
"I2C","address",1.71422202,8.07e-05,true,0x3F,false,
"I2C","data",1.71430752,8.07e-05,true,,,0x05
"I2C","stop",1.71439778,1.99999999e-08,,,,
"I2C","start",1.71440274,1.99999999e-08,,,,
"I2C","address",1.71441224,8.068e-05,true,0x3F,true,
"I2C","data",1.71449774,8.068e-05,false,,,0x00
"I2C","stop",1.71458798,2.00000002e-08,,,,
"I2C","start",1.71522726,1.99999997e-08,,,,
"I2C","address",1.71523676,8.068e-05,true,0x3F,false,
"I2C","data",1.71532226,8.068e-05,true,,,0x05
"I2C","stop",1.71541252,1.99999999e-08,,,,
"I2C","start",1.71541766,1.99999999e-08,,,,
"I2C","address",1.71542716,8.068e-05,true,0x3F,true,
"I2C","data",1.71551266,8.068e-05,false,,,0x00
"I2C","stop",1.71560292,1.99999999e-08,,,,
"I2C","start",1.71624232,1.99999999e-08,,,,
"I2C","address",1.71625182,8.07e-05,true,0x3F,false,
"I2C","data",1.71633732,8.07e-05,true,,,0x05
"I2C","stop",1.71642758,1.99999999e-08,,,,
"I2C","start",1.7164327,2.00000002e-08,,,,
"I2C","address",1.7164422,8.07e-05,true,0x3F,true,
"I2C","data",1.7165277,8.07e-05,false,,,0xF0
"I2C","stop",1.71661796,1.99999999e-08,,,,
"I2C","start",1.71993116,1.99999997e-08,,,,
"I2C","address",1.71994068,8.068e-05,true,0x3F,false,
"I2C","data",1.72002618,8.068e-05,true,,,0x31
"I2C","stop",1.72011642,1.99999999e-08,,,,
"I2C","start",1.72012128,1.99999999e-08,,,,
"I2C","address",1.7201308,8.068e-05,true,0x3F,true,
"I2C","data",1.7202163,8.068e-05,false,,,0x13
"I2C","stop",1.72030654,1.99999999e-08,,,,
"I2C","start",1.72031184,2.00000002e-08,,,,
"I2C","address",1.72032136,8.068e-05,true,0x3F,false,
"I2C","data",1.72040684,8.07e-05,true,,,0x32
"I2C","stop",1.7204971,1.99999999e-08,,,,
"I2C","start",1.72050188,1.99999999e-08,,,,
"I2C","address",1.72051138,8.068e-05,true,0x3F,true,
"I2C","data",1.72059688,8.068e-05,false,,,0x00
"I2C","stop",1.72068712,1.99999999e-08,,,,
"I2C","start",1.93144028,2.00000002e-08,,,,
"I2C","address",1.93144978,8.07e-05,true,0x3F,false,
"I2C","data",1.93153528,8.07e-05,true,,,0x45
"I2C","stop",1.93162554,2.00000002e-08,,,,
"I2C","start",1.9316307,2.00000002e-08,,,,
"I2C","address",1.9316402,8.07e-05,true,0x3F,true,
"I2C","data",1.9317257,8.07e-05,false,,,0x3D
"I2C","stop",1.93181596,2.00000002e-08,,,,
"I2C","start",2.96777096,1.99999999e-08,,,,
"I2C","address",2.96778046,8.07e-05,true,0x3F,false,
"I2C","data",2.96786596,8.07e-05,true,,,0x31
"I2C","stop",2.96795622,1.99999999e-08,,,,
"I2C","start",2.96796164,1.99999999e-08,,,,
"I2C","address",2.96797114,8.07e-05,true,0x3F,true,
"I2C","data",2.96805664,8.07e-05,false,,,0x13
"I2C","stop",2.9681469,2.00000004e-08,,,,
"I2C","start",2.96815192,1.99999999e-08,,,,
"I2C","address",2.96816142,8.07e-05,true,0x3F,false,
"I2C","data",2.96824692,8.07e-05,true,,,0x32
"I2C","stop",2.96833718,1.99999999e-08,,,,
"I2C","start",2.96834196,1.99999999e-08,,,,
"I2C","address",2.96835146,8.068e-05,true,0x3F,true,
"I2C","data",2.96843696,8.068e-05,false,,,0x00
"I2C","stop",2.9685272,1.99999999e-08,,,,
"I2C","start",2.9829937,1.99999999e-08,,,,
"I2C","address",2.98300322,8.068e-05,true,0x3F,false,
"I2C","data",2.98308872,8.068e-05,true,,,0x45
"I2C","stop",2.98317896,1.99999999e-08,,,,
"I2C","start",2.98318434,1.99999999e-08,,,,
"I2C","address",2.98319384,8.068e-05,true,0x3F,true,
"I2C","data",2.98327934,8.068e-05,false,,,0x3D
"I2C","stop",2.9833696,1.99999999e-08,,,,
"I2C","start",2.9931432,1.99999999e-08,,,,
"I2C","address",2.9931527,8.07e-05,true,0x3F,false,
"I2C","data",2.9932382,8.07e-05,true,,,0x45
"I2C","stop",2.99332846,2.00000004e-08,,,,
"I2C","start",2.99333336,2.00000004e-08,,,,
"I2C","address",2.99334288,8.068e-05,true,0x3F,true,
"I2C","data",2.99342838,8.068e-05,false,,,0x3D
"I2C","stop",2.99351862,1.99999999e-08,,,,
"I2C","start",3.00329278,1.99999999e-08,,,,
"I2C","address",3.00330228,8.07e-05,true,0x3F,false,
"I2C","data",3.00338778,8.07e-05,true,,,0x45
"I2C","stop",3.00347804,1.99999999e-08,,,,
"I2C","start",3.00348314,1.99999999e-08,,,,
"I2C","address",3.00349264,8.068e-05,true,0x3F,true,
"I2C","data",3.00357814,8.068e-05,false,,,0x3D
"I2C","stop",3.00366838,1.99999999e-08,,,,
"I2C","start",3.0134422,1.99999999e-08,,,,
"I2C","address",3.0134517,8.068e-05,true,0x3F,false,
"I2C","data",3.0135372,8.068e-05,true,,,0x45
"I2C","stop",3.01362744,1.99999995e-08,,,,
"I2C","start",3.01363246,1.99999999e-08,,,,
"I2C","address",3.01364196,8.07e-05,true,0x3F,true,
"I2C","data",3.01372746,8.07e-05,false,,,0x3D
"I2C","stop",3.01381772,1.99999999e-08,,,,
"I2C","start",3.02359156,2.00000004e-08,,,,
"I2C","address",3.02360106,8.068e-05,true,0x3F,false,
"I2C","data",3.02368656,8.068e-05,true,,,0x45
"I2C","stop",3.02377682,1.99999999e-08,,,,
"I2C","start",3.02378184,2.00000004e-08,,,,
"I2C","address",3.02379134,8.068e-05,true,0x3F,true,
"I2C","data",3.02387684,8.068e-05,false,,,0x3D
"I2C","stop",3.0239671,1.99999995e-08,,,,
"I2C","start",3.03374128,1.99999999e-08,,,,
"I2C","address",3.03375078,8.068e-05,true,0x3F,false,
"I2C","data",3.03383628,8.068e-05,true,,,0x45
"I2C","stop",3.03392654,1.99999999e-08,,,,
"I2C","start",3.03393168,2.00000004e-08,,,,
"I2C","address",3.03394118,8.068e-05,true,0x3F,true,
"I2C","data",3.03402668,8.068e-05,false,,,0x3D
"I2C","stop",3.03411694,1.99999999e-08,,,,
"I2C","start",3.04389082,1.99999999e-08,,,,
"I2C","address",3.04390032,8.07e-05,true,0x3F,false,
"I2C","data",3.04398582,8.07e-05,true,,,0x45
"I2C","stop",3.04407608,1.99999999e-08,,,,
"I2C","start",3.0440812,1.99999999e-08,,,,
"I2C","address",3.0440907,8.07e-05,true,0x3F,true,
"I2C","data",3.0441762,8.07e-05,false,,,0x3D
"I2C","stop",3.04426646,2.00000004e-08,,,,
"I2C","start",3.05404046,1.99999995e-08,,,,
"I2C","address",3.05404996,8.068e-05,true,0x3F,false,
"I2C","data",3.05413546,8.068e-05,true,,,0x45
"I2C","stop",3.05422572,2.00000004e-08,,,,
"I2C","start",3.05423084,2.00000004e-08,,,,
"I2C","address",3.05424034,8.07e-05,true,0x3F,true,
"I2C","data",3.05432584,8.07e-05,false,,,0x3D
"I2C","stop",3.0544161,1.99999999e-08,,,,
"I2C","start",3.06418976,1.99999999e-08,,,,
"I2C","address",3.06419926,8.07e-05,true,0x3F,false,
"I2C","data",3.06428476,8.07e-05,true,,,0x45
"I2C","stop",3.06437502,1.99999999e-08,,,,
"I2C","start",3.06438018,1.99999999e-08,,,,
"I2C","address",3.06438968,8.068e-05,true,0x3F,true,
"I2C","data",3.06447518,8.068e-05,false,,,0x3D
"I2C","stop",3.06456542,1.99999999e-08,,,,
"I2C","start",3.07433902,1.99999999e-08,,,,
"I2C","address",3.07434852,8.07e-05,true,0x3F,false,
"I2C","data",3.07443402,8.07e-05,true,,,0x45
"I2C","stop",3.07452428,1.99999999e-08,,,,
"I2C","start",3.0745294,2.00000004e-08,,,,
"I2C","address",3.0745389,8.07e-05,true,0x3F,true,
"I2C","data",3.0746244,8.07e-05,false,,,0x3D
"I2C","stop",3.07471466,1.99999999e-08,,,,
"I2C","start",3.08448848,1.99999999e-08,,,,
"I2C","address",3.084498,8.068e-05,true,0x3F,false,
"I2C","data",3.08458348,8.07e-05,true,,,0x45
"I2C","stop",3.08467374,1.99999999e-08,,,,
"I2C","start",3.08467874,1.99999999e-08,,,,
"I2C","address",3.08468826,8.068e-05,true,0x3F,true,
"I2C","data",3.08477374,8.07e-05,false,,,0x3D
"I2C","stop",3.084864,1.99999999e-08,,,,
"I2C","start",3.09463744,1.99999999e-08,,,,
"I2C","address",3.09464694,8.068e-05,true,0x3F,false,
"I2C","data",3.09473244,8.068e-05,true,,,0x45
"I2C","stop",3.09482268,1.99999995e-08,,,,
"I2C","start",3.09482768,2.00000004e-08,,,,
"I2C","address",3.09483718,8.068e-05,true,0x3F,true,
"I2C","data",3.09492268,8.068e-05,false,,,0x3D
"I2C","stop",3.09501294,1.99999999e-08,,,,
"I2C","start",3.10478688,2.00000004e-08,,,,
"I2C","address",3.10479638,8.068e-05,true,0x3F,false,
"I2C","data",3.10488188,8.068e-05,true,,,0x45
"I2C","stop",3.10497212,2.00000004e-08,,,,
"I2C","start",3.10497712,1.99999999e-08,,,,
"I2C","address",3.10498662,8.068e-05,true,0x3F,true,
"I2C","data",3.10507212,8.068e-05,false,,,0x3D
"I2C","stop",3.10516236,1.99999999e-08,,,,
"I2C","start",3.11493596,1.99999999e-08,,,,
"I2C","address",3.11494546,8.068e-05,true,0x3F,false,
"I2C","data",3.11503096,8.068e-05,true,,,0x45
"I2C","stop",3.1151212,1.99999999e-08,,,,
"I2C","start",3.11512642,1.99999999e-08,,,,
"I2C","address",3.11513592,8.07e-05,true,0x3F,true,
"I2C","data",3.11522142,8.07e-05,false,,,0x3D
"I2C","stop",3.11531168,1.99999995e-08,,,,
"I2C","start",3.12508528,1.99999999e-08,,,,
"I2C","address",3.12509478,8.07e-05,true,0x3F,false,
"I2C","data",3.12518028,8.07e-05,true,,,0x45
"I2C","stop",3.12527054,1.99999999e-08,,,,
"I2C","start",3.1252757,1.99999999e-08,,,,
"I2C","address",3.1252852,8.07e-05,true,0x3F,true,
"I2C","data",3.1253707,8.07e-05,false,,,0x3D
"I2C","stop",3.12546096,2.00000004e-08,,,,
"I2C","start",3.13523454,1.99999999e-08,,,,
"I2C","address",3.13524406,8.068e-05,true,0x3F,false,
"I2C","data",3.13532956,8.068e-05,true,,,0x45
"I2C","stop",3.1354198,1.99999999e-08,,,,
"I2C","start",3.1354249,2.00000004e-08,,,,
"I2C","address",3.1354344,8.068e-05,true,0x3F,true,
"I2C","data",3.1355199,8.068e-05,false,,,0x3D
"I2C","stop",3.13561016,1.99999999e-08,,,,
"I2C","start",3.14538386,1.99999999e-08,,,,
"I2C","address",3.14539336,8.07e-05,true,0x3F,false,
"I2C","data",3.14547886,8.068e-05,true,,,0x45
"I2C","stop",3.14556912,1.99999999e-08,,,,
"I2C","start",3.14557412,1.99999995e-08,,,,
"I2C","address",3.14558362,8.068e-05,true,0x3F,true,
"I2C","data",3.14566912,8.068e-05,false,,,0x3D
"I2C","stop",3.14575938,2.00000004e-08,,,,
"I2C","start",3.15553384,1.99999999e-08,,,,
"I2C","address",3.15554334,8.07e-05,true,0x3F,false,
"I2C","data",3.15562884,8.07e-05,true,,,0x45
"I2C","stop",3.1557191,1.99999999e-08,,,,
"I2C","start",3.1557242,2.00000004e-08,,,,
"I2C","address",3.1557337,8.07e-05,true,0x3F,true,
"I2C","data",3.1558192,8.07e-05,false,,,0x3D
"I2C","stop",3.15590946,1.99999999e-08,,,,
"I2C","start",3.1656834,2.00000004e-08,,,,
"I2C","address",3.1656929,8.07e-05,true,0x3F,false,
"I2C","data",3.1657784,8.07e-05,true,,,0x45
"I2C","stop",3.16586866,1.99999999e-08,,,,
"I2C","start",3.16587382,2.00000004e-08,,,,
"I2C","address",3.16588332,8.07e-05,true,0x3F,true,
"I2C","data",3.16596882,8.07e-05,false,,,0x3D
"I2C","stop",3.16605908,1.99999999e-08,,,,
"I2C","start",3.17583334,1.99999999e-08,,,,
"I2C","address",3.17584284,8.068e-05,true,0x3F,false,
"I2C","data",3.17592834,8.068e-05,true,,,0x45
"I2C","stop",3.1760186,1.99999999e-08,,,,
"I2C","start",3.17602366,2.00000004e-08,,,,
"I2C","address",3.17603316,8.07e-05,true,0x3F,true,
"I2C","data",3.17611866,8.07e-05,false,,,0x3D
"I2C","stop",3.17620892,1.99999999e-08,,,,
"I2C","start",3.18598306,1.99999999e-08,,,,
"I2C","address",3.18599258,8.068e-05,true,0x3F,false,
"I2C","data",3.18607806,8.07e-05,true,,,0x45
"I2C","stop",3.18616832,1.99999999e-08,,,,
"I2C","start",3.18617332,1.99999999e-08,,,,
"I2C","address",3.18618282,8.07e-05,true,0x3F,true,
"I2C","data",3.18626832,8.07e-05,false,,,0x3D
"I2C","stop",3.18635858,2.00000004e-08,,,,
"I2C","start",3.19613254,2.00000004e-08,,,,
"I2C","address",3.19614204,8.068e-05,true,0x3F,false,
"I2C","data",3.19622754,8.068e-05,true,,,0x45
"I2C","stop",3.1963178,1.99999995e-08,,,,
"I2C","start",3.19632294,1.99999999e-08,,,,
"I2C","address",3.19633246,8.068e-05,true,0x3F,true,
"I2C","data",3.19641796,8.068e-05,false,,,0x3D
"I2C","stop",3.1965082,2.00000004e-08,,,,
"I2C","start",3.20628188,1.99999999e-08,,,,
"I2C","address",3.20629138,8.07e-05,true,0x3F,false,
"I2C","data",3.20637688,8.068e-05,true,,,0x45
"I2C","stop",3.20646714,1.99999995e-08,,,,
"I2C","start",3.20647234,1.99999999e-08,,,,
"I2C","address",3.20648186,8.068e-05,true,0x3F,true,
"I2C","data",3.20656736,8.068e-05,false,,,0x3D
"I2C","stop",3.2066576,1.99999999e-08,,,,
"I2C","start",3.21643124,1.99999999e-08,,,,
"I2C","address",3.21644074,8.07e-05,true,0x3F,false,
"I2C","data",3.21652624,8.07e-05,true,,,0x45
"I2C","stop",3.2166165,1.99999999e-08,,,,
"I2C","start",3.2166216,2.00000004e-08,,,,
"I2C","address",3.21663112,8.068e-05,true,0x3F,true,
"I2C","data",3.21671662,8.068e-05,false,,,0x3D
"I2C","stop",3.21680686,1.99999999e-08,,,,
"I2C","start",3.2265804,1.99999999e-08,,,,
"I2C","address",3.2265899,8.068e-05,true,0x3F,false,
"I2C","data",3.2266754,8.068e-05,true,,,0x45
"I2C","stop",3.22676564,1.99999999e-08,,,,
"I2C","start",3.22677076,1.99999999e-08,,,,
"I2C","address",3.22678026,8.068e-05,true,0x3F,true,
"I2C","data",3.22686576,8.068e-05,false,,,0x3D
"I2C","stop",3.226956,1.99999995e-08,,,,
"I2C","start",3.23672958,1.99999995e-08,,,,
"I2C","address",3.23673908,8.07e-05,true,0x3F,false,
"I2C","data",3.23682458,8.07e-05,true,,,0x45
"I2C","stop",3.23691484,2.00000004e-08,,,,
"I2C","start",3.23692006,1.99999999e-08,,,,
"I2C","address",3.23692956,8.07e-05,true,0x3F,true,
"I2C","data",3.23701506,8.07e-05,false,,,0x3D
"I2C","stop",3.23710532,1.99999995e-08,,,,
"I2C","start",3.24687894,1.99999999e-08,,,,
"I2C","address",3.24688844,8.07e-05,true,0x3F,false,
"I2C","data",3.24697394,8.07e-05,true,,,0x45
"I2C","stop",3.2470642,1.99999995e-08,,,,
"I2C","start",3.24706924,1.99999995e-08,,,,
"I2C","address",3.24707874,8.07e-05,true,0x3F,true,
"I2C","data",3.24716424,8.07e-05,false,,,0x3D
"I2C","stop",3.2472545,1.99999999e-08,,,,
"I2C","start",3.25702834,1.99999999e-08,,,,
"I2C","address",3.25703784,8.068e-05,true,0x3F,false,
"I2C","data",3.25712334,8.068e-05,true,,,0x45
"I2C","stop",3.2572136,1.99999999e-08,,,,
"I2C","start",3.25721864,1.99999999e-08,,,,
"I2C","address",3.25722814,8.068e-05,true,0x3F,true,
"I2C","data",3.25731364,8.068e-05,false,,,0x3D
"I2C","stop",3.2574039,1.99999999e-08,,,,
"I2C","start",3.26717786,2.00000004e-08,,,,
"I2C","address",3.26718736,8.07e-05,true,0x3F,false,
"I2C","data",3.26727286,8.068e-05,true,,,0x45
"I2C","stop",3.26736312,1.99999999e-08,,,,
"I2C","start",3.26736828,1.99999999e-08,,,,
"I2C","address",3.26737778,8.068e-05,true,0x3F,true,
"I2C","data",3.26746328,8.068e-05,false,,,0x3D
"I2C","stop",3.26755354,1.99999999e-08,,,,
"I2C","start",3.27732758,1.99999999e-08,,,,
"I2C","address",3.27733708,8.068e-05,true,0x3F,false,
"I2C","data",3.27742258,8.068e-05,true,,,0x45
"I2C","stop",3.27751282,1.99999999e-08,,,,
"I2C","start",3.27751778,1.99999999e-08,,,,
"I2C","address",3.27752728,8.068e-05,true,0x3F,true,
"I2C","data",3.27761278,8.068e-05,false,,,0x3D
"I2C","stop",3.27770304,1.99999999e-08,,,,
"I2C","start",3.28747708,1.99999995e-08,,,,
"I2C","address",3.28748658,8.068e-05,true,0x3F,false,
"I2C","data",3.28757208,8.068e-05,true,,,0x45
"I2C","stop",3.28766232,1.99999999e-08,,,,
"I2C","start",3.28766736,1.99999999e-08,,,,
"I2C","address",3.28767686,8.068e-05,true,0x3F,true,
"I2C","data",3.28776236,8.068e-05,false,,,0x3D
"I2C","stop",3.2878526,1.99999999e-08,,,,
"I2C","start",3.29762568,1.99999999e-08,,,,
"I2C","address",3.29763518,8.07e-05,true,0x3F,false,
"I2C","data",3.29772068,8.07e-05,true,,,0x45
"I2C","stop",3.29781094,1.99999999e-08,,,,
"I2C","start",3.29781608,1.99999999e-08,,,,
"I2C","address",3.29782558,8.068e-05,true,0x3F,true,
"I2C","data",3.29791108,8.068e-05,false,,,0x3D
"I2C","stop",3.29800132,1.99999999e-08,,,,
"I2C","start",3.30777494,2.00000004e-08,,,,
"I2C","address",3.30778444,8.07e-05,true,0x3F,false,
"I2C","data",3.30786994,8.07e-05,true,,,0x45
"I2C","stop",3.3079602,1.99999999e-08,,,,
"I2C","start",3.30796516,1.99999999e-08,,,,
"I2C","address",3.30797468,8.068e-05,true,0x3F,true,
"I2C","data",3.30806018,8.068e-05,false,,,0x3D
"I2C","stop",3.30815042,1.99999999e-08,,,,
"I2C","start",3.31792378,1.99999999e-08,,,,
"I2C","address",3.3179333,8.068e-05,true,0x3F,false,
"I2C","data",3.3180188,8.068e-05,true,,,0x45
"I2C","stop",3.31810904,1.99999999e-08,,,,
"I2C","start",3.31811416,1.99999995e-08,,,,
"I2C","address",3.31812368,8.068e-05,true,0x3F,true,
"I2C","data",3.31820918,8.068e-05,false,,,0x3D
"I2C","stop",3.31829942,1.99999999e-08,,,,
"I2C","start",3.32807302,1.99999999e-08,,,,
"I2C","address",3.32808252,8.068e-05,true,0x3F,false,
"I2C","data",3.32816802,8.068e-05,true,,,0x45
"I2C","stop",3.32825826,1.99999999e-08,,,,
"I2C","start",3.32826334,1.99999999e-08,,,,
"I2C","address",3.32827284,8.068e-05,true,0x3F,true,
"I2C","data",3.32835834,8.068e-05,false,,,0x3D
"I2C","stop",3.3284486,1.99999999e-08,,,,
"I2C","start",3.338222,1.99999995e-08,,,,
"I2C","address",3.3382315,8.07e-05,true,0x3F,false,
"I2C","data",3.338317,8.07e-05,true,,,0x45
"I2C","stop",3.33840726,2.00000004e-08,,,,
"I2C","start",3.33841226,1.99999999e-08,,,,
"I2C","address",3.33842178,8.068e-05,true,0x3F,true,
"I2C","data",3.33850728,8.068e-05,false,,,0x3D
"I2C","stop",3.33859752,1.99999999e-08,,,,
"I2C","start",3.34837114,2.00000004e-08,,,,
"I2C","address",3.34838064,8.068e-05,true,0x3F,false,
"I2C","data",3.34846614,8.068e-05,true,,,0x45
"I2C","stop",3.34855638,1.99999995e-08,,,,
"I2C","start",3.34856146,1.99999999e-08,,,,
"I2C","address",3.34857096,8.07e-05,true,0x3F,true,
"I2C","data",3.34865646,8.07e-05,false,,,0x3D
"I2C","stop",3.34874672,2.00000004e-08,,,,
"I2C","start",3.3585202,1.99999999e-08,,,,
"I2C","address",3.3585297,8.07e-05,true,0x3F,false,
"I2C","data",3.3586152,8.07e-05,true,,,0x45
"I2C","stop",3.35870546,1.99999995e-08,,,,
"I2C","start",3.35871058,2.00000004e-08,,,,
"I2C","address",3.35872008,8.068e-05,true,0x3F,true,
"I2C","data",3.35880558,8.068e-05,false,,,0x3D
"I2C","stop",3.35889582,2.00000004e-08,,,,
"I2C","start",3.3686691,1.99999999e-08,,,,
"I2C","address",3.3686786,8.07e-05,true,0x3F,false,
"I2C","data",3.3687641,8.07e-05,true,,,0x45
"I2C","stop",3.36885436,2.00000004e-08,,,,
"I2C","start",3.36885942,1.99999999e-08,,,,
"I2C","address",3.36886892,8.07e-05,true,0x3F,true,
"I2C","data",3.36895442,8.07e-05,false,,,0x3D
"I2C","stop",3.36904468,1.99999999e-08,,,,
"I2C","start",3.37881844,2.00000004e-08,,,,
"I2C","address",3.37882796,8.068e-05,true,0x3F,false,
"I2C","data",3.37891346,8.068e-05,true,,,0x45
"I2C","stop",3.3790037,1.99999999e-08,,,,
"I2C","start",3.37900868,1.99999999e-08,,,,
"I2C","address",3.37901818,8.07e-05,true,0x3F,true,
"I2C","data",3.37910368,8.07e-05,false,,,0x3D
"I2C","stop",3.37919394,1.99999995e-08,,,,
"I2C","start",3.38896728,1.99999995e-08,,,,
"I2C","address",3.38897678,8.068e-05,true,0x3F,false,
"I2C","data",3.38906228,8.068e-05,true,,,0x45
"I2C","stop",3.38915254,1.99999999e-08,,,,
"I2C","start",3.38915768,2.00000004e-08,,,,
"I2C","address",3.38916718,8.068e-05,true,0x3F,true,
"I2C","data",3.38925268,8.068e-05,false,,,0x3D
"I2C","stop",3.38934294,1.99999999e-08,,,,
"I2C","start",3.39911638,1.99999999e-08,,,,
"I2C","address",3.3991259,8.068e-05,true,0x3F,false,
"I2C","data",3.3992114,8.068e-05,true,,,0x45
"I2C","stop",3.39930164,1.99999999e-08,,,,
"I2C","start",3.39930676,1.99999999e-08,,,,
"I2C","address",3.39931626,8.068e-05,true,0x3F,true,
"I2C","data",3.39940176,8.068e-05,false,,,0x3D
"I2C","stop",3.39949202,2.00000004e-08,,,,
"I2C","start",3.4092656,2.00000004e-08,,,,
"I2C","address",3.40927512,8.068e-05,true,0x3F,false,
"I2C","data",3.4093606,8.07e-05,true,,,0x45
"I2C","stop",3.40945086,1.99999995e-08,,,,
"I2C","start",3.40945602,1.99999995e-08,,,,
"I2C","address",3.40946552,8.07e-05,true,0x3F,true,
"I2C","data",3.40955102,8.07e-05,false,,,0x3D
"I2C","stop",3.40964128,1.99999999e-08,,,,
"I2C","start",3.41941508,2.00000004e-08,,,,
"I2C","address",3.41942458,8.068e-05,true,0x3F,false,
"I2C","data",3.41951008,8.068e-05,true,,,0x45
"I2C","stop",3.41960034,1.99999999e-08,,,,
"I2C","start",3.41960544,1.99999999e-08,,,,
"I2C","address",3.41961494,8.068e-05,true,0x3F,true,
"I2C","data",3.41970044,8.068e-05,false,,,0x3D
"I2C","stop",3.41979068,1.99999999e-08,,,,
"I2C","start",3.4295639,1.99999999e-08,,,,
"I2C","address",3.4295734,8.07e-05,true,0x3F,false,
"I2C","data",3.4296589,8.07e-05,true,,,0x45
"I2C","stop",3.42974916,1.99999995e-08,,,,
"I2C","start",3.42975416,2.00000004e-08,,,,
"I2C","address",3.42976366,8.068e-05,true,0x3F,true,
"I2C","data",3.42984916,8.068e-05,false,,,0x3D
"I2C","stop",3.4299394,2.00000004e-08,,,,
"I2C","start",3.43971328,2.00000004e-08,,,,
"I2C","address",3.43972278,8.07e-05,true,0x3F,false,
"I2C","data",3.43980828,8.07e-05,true,,,0x45
"I2C","stop",3.43989854,1.99999999e-08,,,,
"I2C","start",3.4399036,1.99999999e-08,,,,
"I2C","address",3.4399131,8.068e-05,true,0x3F,true,
"I2C","data",3.4399986,8.068e-05,false,,,0x3D
"I2C","stop",3.44008884,1.99999999e-08,,,,
"I2C","start",3.44986218,2.00000004e-08,,,,
"I2C","address",3.44987168,8.068e-05,true,0x3F,false,
"I2C","data",3.44995718,8.068e-05,true,,,0x45
"I2C","stop",3.45004742,1.99999999e-08,,,,
"I2C","start",3.45005236,1.99999995e-08,,,,
"I2C","address",3.45006186,8.07e-05,true,0x3F,true,
"I2C","data",3.45014736,8.07e-05,false,,,0x3D
"I2C","stop",3.45023762,2.00000004e-08,,,,
"I2C","start",3.46001076,2.00000004e-08,,,,
"I2C","address",3.46002026,8.07e-05,true,0x3F,false,
"I2C","data",3.46010576,8.07e-05,true,,,0x45
"I2C","stop",3.46019602,1.99999995e-08,,,,
"I2C","start",3.46020096,2.00000004e-08,,,,
"I2C","address",3.46021046,8.07e-05,true,0x3F,true,
"I2C","data",3.46029596,8.07e-05,false,,,0x3D
"I2C","stop",3.46038622,1.99999999e-08,,,,
"I2C","start",3.47015954,1.99999999e-08,,,,
"I2C","address",3.47016904,8.068e-05,true,0x3F,false,
"I2C","data",3.47025454,8.068e-05,true,,,0x45
"I2C","stop",3.47034478,1.99999999e-08,,,,
"I2C","start",3.47034966,1.99999995e-08,,,,
"I2C","address",3.47035916,8.07e-05,true,0x3F,true,
"I2C","data",3.47044466,8.07e-05,false,,,0x3D
"I2C","stop",3.47053492,1.99999999e-08,,,,
"I2C","start",3.48030894,1.99999999e-08,,,,
"I2C","address",3.48031844,8.07e-05,true,0x3F,false,
"I2C","data",3.48040394,8.07e-05,true,,,0x45
"I2C","stop",3.4804942,1.99999999e-08,,,,
"I2C","start",3.48049928,1.99999999e-08,,,,
"I2C","address",3.48050878,8.068e-05,true,0x3F,true,
"I2C","data",3.48059428,8.068e-05,false,,,0x3D
"I2C","stop",3.48068452,1.99999995e-08,,,,
"I2C","start",3.49045828,1.99999999e-08,,,,
"I2C","address",3.49046778,8.07e-05,true,0x3F,false,
"I2C","data",3.49055328,8.07e-05,true,,,0x45
"I2C","stop",3.49064354,1.99999999e-08,,,,
"I2C","start",3.49064864,2.00000004e-08,,,,
"I2C","address",3.49065814,8.07e-05,true,0x3F,true,
"I2C","data",3.49074364,8.07e-05,false,,,0x3D
"I2C","stop",3.4908339,1.99999999e-08,,,,
"I2C","start",3.50060736,1.99999999e-08,,,,
"I2C","address",3.50061686,8.068e-05,true,0x3F,false,
"I2C","data",3.50070236,8.068e-05,true,,,0x45
"I2C","stop",3.5007926,1.99999995e-08,,,,
"I2C","start",3.50079782,2.00000004e-08,,,,
"I2C","address",3.50080732,8.068e-05,true,0x3F,true,
"I2C","data",3.50089282,8.068e-05,false,,,0x3D
"I2C","stop",3.50098306,1.99999999e-08,,,,
"I2C","start",3.51075662,1.99999999e-08,,,,
"I2C","address",3.51076612,8.07e-05,true,0x3F,false,
"I2C","data",3.51085162,8.07e-05,true,,,0x45
"I2C","stop",3.51094188,2.00000004e-08,,,,
"I2C","start",3.51094704,1.99999999e-08,,,,
"I2C","address",3.51095656,8.068e-05,true,0x3F,true,
"I2C","data",3.51104206,8.068e-05,false,,,0x3D
"I2C","stop",3.5111323,2.00000004e-08,,,,
"I2C","start",3.52090544,1.99999999e-08,,,,
"I2C","address",3.52091496,8.068e-05,true,0x3F,false,
"I2C","data",3.52100046,8.068e-05,true,,,0x45
"I2C","stop",3.5210907,2.00000004e-08,,,,
"I2C","start",3.52109576,1.99999999e-08,,,,
"I2C","address",3.52110528,8.068e-05,true,0x3F,true,
"I2C","data",3.52119078,8.068e-05,false,,,0x3D
"I2C","stop",3.52128102,1.99999999e-08,,,,
"I2C","start",3.5310546,1.99999999e-08,,,,
"I2C","address",3.5310641,8.068e-05,true,0x3F,false,
"I2C","data",3.5311496,8.068e-05,true,,,0x45
"I2C","stop",3.53123986,2.00000004e-08,,,,
"I2C","start",3.53124488,1.99999995e-08,,,,
"I2C","address",3.53125438,8.068e-05,true,0x3F,true,
"I2C","data",3.53133988,8.068e-05,false,,,0x3D
"I2C","stop",3.53143014,2.00000004e-08,,,,
"I2C","start",3.54120328,1.99999995e-08,,,,
"I2C","address",3.5412128,8.068e-05,true,0x3F,false,
"I2C","data",3.5412983,8.068e-05,true,,,0x45
"I2C","stop",3.54138854,2.00000004e-08,,,,
"I2C","start",3.54139364,2.00000004e-08,,,,
"I2C","address",3.54140316,8.068e-05,true,0x3F,true,
"I2C","data",3.54148864,8.07e-05,false,,,0x3D
"I2C","stop",3.5415789,1.99999999e-08,,,,
"I2C","start",3.55135294,1.99999999e-08,,,,
"I2C","address",3.55136244,8.068e-05,true,0x3F,false,
"I2C","data",3.55144794,8.068e-05,true,,,0x45
"I2C","stop",3.5515382,1.99999999e-08,,,,
"I2C","start",3.55154326,2.00000004e-08,,,,
"I2C","address",3.55155276,8.07e-05,true,0x3F,true,
"I2C","data",3.55163826,8.07e-05,false,,,0x3D
"I2C","stop",3.55172852,1.99999999e-08,,,,
"I2C","start",3.56150208,1.99999999e-08,,,,
"I2C","address",3.56151158,8.07e-05,true,0x3F,false,
"I2C","data",3.56159708,8.07e-05,true,,,0x45
"I2C","stop",3.56168734,1.99999995e-08,,,,
"I2C","start",3.56169242,1.99999999e-08,,,,
"I2C","address",3.56170192,8.07e-05,true,0x3F,true,
"I2C","data",3.56178742,8.07e-05,false,,,0x3D
"I2C","stop",3.56187768,2.00000004e-08,,,,
"I2C","start",3.57165096,1.99999999e-08,,,,
"I2C","address",3.57166046,8.07e-05,true,0x3F,false,
"I2C","data",3.57174596,8.07e-05,true,,,0x45
"I2C","stop",3.57183622,2.00000004e-08,,,,
"I2C","start",3.57184134,1.99999995e-08,,,,
"I2C","address",3.57185084,8.07e-05,true,0x3F,true,
"I2C","data",3.57193634,8.07e-05,false,,,0x3D
"I2C","stop",3.5720266,1.99999999e-08,,,,
"I2C","start",3.58179972,1.99999999e-08,,,,
"I2C","address",3.58180922,8.068e-05,true,0x3F,false,
"I2C","data",3.58189472,8.068e-05,true,,,0x45
"I2C","stop",3.58198496,1.99999999e-08,,,,
"I2C","start",3.58198998,1.99999999e-08,,,,
"I2C","address",3.58199948,8.068e-05,true,0x3F,true,
"I2C","data",3.58208498,8.068e-05,false,,,0x3D
"I2C","stop",3.58217522,1.99999999e-08,,,,
"I2C","start",3.59194856,1.99999995e-08,,,,
"I2C","address",3.59195806,8.068e-05,true,0x3F,false,
"I2C","data",3.59204356,8.068e-05,true,,,0x45
"I2C","stop",3.5921338,1.99999999e-08,,,,
"I2C","start",3.5921388,2.00000004e-08,,,,
"I2C","address",3.5921483,8.068e-05,true,0x3F,true,
"I2C","data",3.5922338,8.068e-05,false,,,0xBD
"I2C","stop",3.59232404,2.00000004e-08,,,,
"I2C","start",3.59754784,2.00000004e-08,,,,
"I2C","address",3.59755734,8.068e-05,true,0x42,false,
"I2C","data",3.59764284,8.068e-05,true,,,0x7F
"I2C","data",3.59772834,8.068e-05,true,,,0x00
"I2C","stop",3.5978186,1.99999999e-08,,,,
"I2C","start",3.59782364,1.99999999e-08,,,,
"I2C","address",3.59783314,8.068e-05,true,0x42,false,
"I2C","data",3.59791864,8.068e-05,true,,,0xEE
"I2C","stop",3.5980089,1.99999999e-08,,,,
"I2C","start",3.5980137,1.99999999e-08,,,,
"I2C","address",3.5980232,8.068e-05,true,0x42,true,
"I2C","data",3.5981087,8.068e-05,false,,,0x00
"I2C","stop",3.59819896,1.99999995e-08,,,,
"I2C","start",3.59820516,1.99999999e-08,,,,
"I2C","address",3.59821466,8.068e-05,true,0x42,false,
"I2C","data",3.59830016,8.068e-05,true,,,0xEE
"I2C","data",3.59838566,8.068e-05,true,,,0x00
"I2C","stop",3.5984759,1.99999999e-08,,,,
"I2C","start",3.59848098,1.99999999e-08,,,,
"I2C","address",3.59849048,8.068e-05,true,0x42,false,
"I2C","data",3.59857598,8.068e-05,true,,,0xEC
"I2C","stop",3.59866622,1.99999999e-08,,,,
"I2C","start",3.598671,1.99999999e-08,,,,
"I2C","address",3.5986805,8.07e-05,true,0x42,true,
"I2C","data",3.598766,8.07e-05,false,,,0x00
"I2C","stop",3.59885626,1.99999999e-08,,,,
"I2C","start",3.5988613,1.99999999e-08,,,,
"I2C","address",3.5988708,8.07e-05,true,0x42,false,
"I2C","data",3.5989563,8.07e-05,true,,,0xEC
"I2C","data",3.5990418,8.07e-05,true,,,0x10
"I2C","stop",3.59913206,1.99999999e-08,,,,
"I2C","start",3.59913832,2.00000004e-08,,,,
"I2C","address",3.59914782,8.07e-05,true,0x42,false,
"I2C","data",3.59923332,8.068e-05,true,,,0xFF
"I2C","stop",3.59932358,1.99999999e-08,,,,
"I2C","start",3.59932838,1.99999995e-08,,,,
"I2C","address",3.59933788,8.068e-05,true,0x42,true,
"I2C","data",3.59942338,8.068e-05,false,,,0x00
"I2C","stop",3.59951364,1.99999999e-08,,,,
"I2C","start",3.59951876,1.99999999e-08,,,,
"I2C","address",3.59952828,8.068e-05,true,0x42,false,
"I2C","data",3.59961378,8.068e-05,true,,,0xFF
"I2C","data",3.59969926,8.07e-05,true,,,0x01
"I2C","stop",3.59978952,2.00000004e-08,,,,
"I2C","start",3.59979454,1.99999999e-08,,,,
"I2C","address",3.59980404,8.068e-05,true,0x42,false,
"I2C","data",3.59988954,8.068e-05,true,,,0x86
"I2C","stop",3.59997978,1.99999999e-08,,,,
"I2C","start",3.59998456,2.00000004e-08,,,,
"I2C","address",3.59999406,8.07e-05,true,0x42,true,
"I2C","data",3.60007956,8.07e-05,false,,,0x00
"I2C","stop",3.60016982,1.99999999e-08,,,,
"I2C","start",3.60400544,2.00000004e-08,,,,
"I2C","address",3.60401494,8.068e-05,true,0x3F,false,
"I2C","data",3.60410044,8.068e-05,true,,,0x39
"I2C","data",3.60418594,8.068e-05,true,,,0x00
"I2C","stop",3.60427618,2.00000004e-08,,,,
"I2C","start",3.60428148,1.99999999e-08,,,,
"I2C","address",3.60429098,8.068e-05,true,0x3F,false,
"I2C","data",3.60437648,8.068e-05,true,,,0x11
"I2C","data",3.60446198,8.068e-05,true,,,0x50
"I2C","stop",3.60455224,2.00000004e-08,,,,
"I2C","start",3.60455738,1.99999999e-08,,,,
"I2C","address",3.6045669,8.068e-05,true,0x3F,false,
"I2C","data",3.6046524,8.068e-05,true,,,0x12
"I2C","data",3.60473788,8.07e-05,true,,,0x00
"I2C","stop",3.60482814,1.99999999e-08,,,,
"I2C","start",3.60483302,1.99999999e-08,,,,
"I2C","address",3.60484252,8.07e-05,true,0x3F,false,
"I2C","data",3.60492802,8.07e-05,true,,,0x13
"I2C","stop",3.60501828,1.99999999e-08,,,,
"I2C","start",3.60502306,1.99999999e-08,,,,
"I2C","address",3.60503256,8.068e-05,true,0x3F,true,
"I2C","data",3.60511806,8.068e-05,false,,,0x00
"I2C","stop",3.6052083,1.99999999e-08,,,,
"I2C","start",3.60521366,1.99999999e-08,,,,
"I2C","address",3.60522316,8.068e-05,true,0x3F,false,
"I2C","data",3.60530866,8.068e-05,true,,,0x13
"I2C","data",3.60539416,8.068e-05,true,,,0x00
"I2C","stop",3.6054844,1.99999999e-08,,,,
"I2C","start",3.60548966,1.99999999e-08,,,,
"I2C","address",3.60549916,8.068e-05,true,0x3F,false,
"I2C","data",3.60558466,8.068e-05,true,,,0x15
"I2C","data",3.60567016,8.068e-05,true,,,0x7E
"I2C","stop",3.6057604,2.00000004e-08,,,,
"I2C","start",3.60576526,1.99999999e-08,,,,
"I2C","address",3.60577476,8.07e-05,true,0x3F,false,
"I2C","data",3.60586026,8.068e-05,true,,,0x27
"I2C","data",3.60594576,8.07e-05,true,,,0x04
"I2C","stop",3.60603602,2.00000004e-08,,,,
"I2C","start",3.60604098,1.99999999e-08,,,,
"I2C","address",3.6060505,8.068e-05,true,0x3F,false,
"I2C","data",3.606136,8.068e-05,true,,,0x14
"I2C","stop",3.60622624,1.99999999e-08,,,,
"I2C","start",3.60623112,1.99999999e-08,,,,
"I2C","address",3.60624064,8.068e-05,true,0x3F,true,
"I2C","data",3.60632614,8.068e-05,false,,,0x00
"I2C","stop",3.60641638,1.99999999e-08,,,,
"I2C","start",3.60642154,1.99999999e-08,,,,
"I2C","address",3.60643106,8.068e-05,true,0x3F,false,
"I2C","data",3.60651654,8.07e-05,true,,,0x14
"I2C","data",3.60660204,8.07e-05,true,,,0x10
"I2C","stop",3.6066923,1.99999999e-08,,,,
"I2C","start",3.60815532,2.00000004e-08,,,,
"I2C","address",3.60816484,8.068e-05,true,0x3F,false,
"I2C","data",3.60825032,8.07e-05,true,,,0x14
"I2C","stop",3.60834058,1.99999999e-08,,,,
"I2C","start",3.60834586,1.99999999e-08,,,,
"I2C","address",3.60835536,8.07e-05,true,0x3F,true,
"I2C","data",3.60844086,8.07e-05,false,,,0x00
"I2C","stop",3.60853112,2.00000004e-08,,,,
"I2C","start",3.60853614,1.99999995e-08,,,,
"I2C","address",3.60854564,8.068e-05,true,0x3F,false,
"I2C","data",3.60863114,8.068e-05,true,,,0x14
"I2C","stop",3.60872138,1.99999999e-08,,,,
"I2C","start",3.60872616,2.00000004e-08,,,,
"I2C","address",3.60873566,8.07e-05,true,0x3F,true,
"I2C","data",3.60882116,8.07e-05,false,,,0x00
"I2C","stop",3.60891142,1.99999999e-08,,,,
"I2C","start",3.60891658,2.00000004e-08,,,,
"I2C","address",3.60892608,8.07e-05,true,0x3F,false,
"I2C","data",3.60901158,8.07e-05,true,,,0x27
"I2C","data",3.60909708,8.07e-05,true,,,0x01
"I2C","stop",3.60918734,1.99999999e-08,,,,
"I2C","start",3.6091978,1.99999999e-08,,,,
"I2C","address",3.6092073,8.07e-05,true,0x3F,false,
"I2C","data",3.6092928,8.07e-05,true,,,0x14
"I2C","stop",3.60938306,2.00000004e-08,,,,
"I2C","start",3.60938784,1.99999995e-08,,,,
"I2C","address",3.60939736,8.068e-05,true,0x3F,true,
"I2C","data",3.60948286,8.068e-05,false,,,0x00
"I2C","stop",3.6095731,1.99999999e-08,,,,
"I2C","start",3.60957812,1.99999999e-08,,,,
"I2C","address",3.60958764,8.068e-05,true,0x3F,false,
"I2C","data",3.60967314,8.068e-05,true,,,0x14
"I2C","data",3.60975864,8.068e-05,true,,,0x10
"I2C","stop",3.60984888,1.99999999e-08,,,,
"I2C","start",3.6112,1.99999999e-08,,,,
"I2C","address",3.61120952,8.068e-05,true,0x3F,false,
"I2C","data",3.61129502,8.068e-05,true,,,0x14
"I2C","stop",3.61138526,1.99999999e-08,,,,
"I2C","start",3.61139024,1.99999995e-08,,,,
"I2C","address",3.61139976,8.068e-05,true,0x3F,true,
"I2C","data",3.61148524,8.07e-05,false,,,0x10
"I2C","stop",3.6115755,2.00000004e-08,,,,
"I2C","start",3.61326162,2.00000004e-08,,,,
"I2C","address",3.61327112,8.068e-05,true,0x3F,false,
"I2C","data",3.61335662,8.068e-05,true,,,0x14
"I2C","stop",3.61344688,1.99999999e-08,,,,
"I2C","start",3.6134528,1.99999999e-08,,,,
"I2C","address",3.6134623,8.07e-05,true,0x3F,true,
"I2C","data",3.6135478,8.07e-05,false,,,0x10
"I2C","stop",3.61363806,1.99999999e-08,,,,
"I2C","start",3.6152911,2.00000004e-08,,,,
"I2C","address",3.6153006,8.07e-05,true,0x3F,false,
"I2C","data",3.6153861,8.07e-05,true,,,0x14
"I2C","stop",3.61547636,1.99999999e-08,,,,
"I2C","start",3.61548146,1.99999999e-08,,,,
"I2C","address",3.61549096,8.07e-05,true,0x3F,true,
"I2C","data",3.61557646,8.07e-05,false,,,0x10
"I2C","stop",3.61566672,1.99999999e-08,,,,
"I2C","start",3.61732094,1.99999999e-08,,,,
"I2C","address",3.61733044,8.068e-05,true,0x3F,false,
"I2C","data",3.61741594,8.068e-05,true,,,0x14
"I2C","stop",3.61750618,1.99999999e-08,,,,
"I2C","start",3.61751122,1.99999999e-08,,,,
"I2C","address",3.61752072,8.068e-05,true,0x3F,true,
"I2C","data",3.61760622,8.068e-05,false,,,0x10
"I2C","stop",3.61769646,1.99999999e-08,,,,
"I2C","start",3.61935064,1.99999995e-08,,,,
"I2C","address",3.61936014,8.07e-05,true,0x3F,false,
"I2C","data",3.61944564,8.07e-05,true,,,0x14
"I2C","stop",3.6195359,2.00000004e-08,,,,
"I2C","start",3.61954104,1.99999999e-08,,,,
"I2C","address",3.61955054,8.068e-05,true,0x3F,true,
"I2C","data",3.61963604,8.068e-05,false,,,0x00
"I2C","stop",3.61972628,1.99999999e-08,,,,
"I2C","start",3.6197315,2.00000004e-08,,,,
"I2C","address",3.619741,8.068e-05,true,0x3F,false,
"I2C","data",3.6198265,8.068e-05,true,,,0x14
"I2C","stop",3.61991676,1.99999999e-08,,,,
"I2C","start",3.61992152,1.99999995e-08,,,,
"I2C","address",3.61993104,8.068e-05,true,0x3F,true,
"I2C","data",3.62001654,8.068e-05,false,,,0x00
"I2C","stop",3.62010678,1.99999999e-08,,,,
"I2C","start",3.62011178,2.00000004e-08,,,,
"I2C","address",3.6201213,8.068e-05,true,0x3F,false,
"I2C","data",3.62020678,8.07e-05,true,,,0x15
"I2C","stop",3.62029704,1.99999999e-08,,,,
"I2C","start",3.62030182,2.00000004e-08,,,,
"I2C","address",3.62031132,8.068e-05,true,0x3F,true,
"I2C","data",3.62039682,8.068e-05,false,,,0x00
"I2C","stop",3.62048706,2.00000004e-08,,,,
"I2C","start",3.6236271,1.99999999e-08,,,,
"I2C","address",3.6236366,8.07e-05,true,0x3F,false,
"I2C","data",3.6237221,8.07e-05,true,,,0x15
"I2C","data",3.6238076,8.07e-05,true,,,0x00
"I2C","stop",3.62389786,1.99999999e-08,,,,
"I2C","start",3.62390312,1.99999999e-08,,,,
"I2C","address",3.62391262,8.07e-05,true,0x3F,false,
"I2C","data",3.62399812,8.07e-05,true,,,0x27
"I2C","data",3.62408362,8.07e-05,true,,,0x04
"I2C","stop",3.62417388,2.00000004e-08,,,,
"I2C","start",3.62417902,1.99999999e-08,,,,
"I2C","address",3.62418852,8.068e-05,true,0x3F,false,
"I2C","data",3.62427402,8.068e-05,true,,,0x14
"I2C","stop",3.62436426,1.99999995e-08,,,,
"I2C","start",3.62436904,1.99999999e-08,,,,
"I2C","address",3.62437854,8.07e-05,true,0x3F,true,
"I2C","data",3.62446404,8.07e-05,false,,,0x00
"I2C","stop",3.6245543,2.00000004e-08,,,,
"I2C","start",3.62455976,1.99999995e-08,,,,
"I2C","address",3.62456926,8.068e-05,true,0x3F,false,
"I2C","data",3.62465476,8.068e-05,true,,,0x14
"I2C","data",3.62474026,8.068e-05,true,,,0x10
"I2C","stop",3.6248305,1.99999999e-08,,,,
"I2C","start",3.62642318,1.99999999e-08,,,,
"I2C","address",3.6264327,8.068e-05,true,0x3F,false,
"I2C","data",3.6265182,8.068e-05,true,,,0x14
"I2C","stop",3.62660844,1.99999999e-08,,,,
"I2C","start",3.62661354,1.99999999e-08,,,,
"I2C","address",3.62662304,8.068e-05,true,0x3F,true,
"I2C","data",3.62670854,8.068e-05,false,,,0x00
"I2C","stop",3.6267988,1.99999999e-08,,,,
"I2C","start",3.62680382,1.99999999e-08,,,,
"I2C","address",3.62681334,8.068e-05,true,0x3F,false,
"I2C","data",3.62689882,8.07e-05,true,,,0x14
"I2C","stop",3.62698908,1.99999999e-08,,,,
"I2C","start",3.62699386,2.00000004e-08,,,,
"I2C","address",3.62700336,8.068e-05,true,0x3F,true,
"I2C","data",3.62708886,8.068e-05,false,,,0x00
"I2C","stop",3.62717912,1.99999999e-08,,,,
"I2C","start",3.62718434,2.00000004e-08,,,,
"I2C","address",3.62719384,8.07e-05,true,0x3F,false,
"I2C","data",3.62727934,8.07e-05,true,,,0x27
"I2C","data",3.62736484,8.07e-05,true,,,0xF1
"I2C","stop",3.6274551,1.99999999e-08,,,,
"I2C","start",3.62746542,1.99999999e-08,,,,
"I2C","address",3.62747492,8.068e-05,true,0x3F,false,
"I2C","data",3.62756042,8.068e-05,true,,,0x14
"I2C","stop",3.62765066,1.99999995e-08,,,,
"I2C","start",3.62765544,1.99999999e-08,,,,
"I2C","address",3.62766494,8.07e-05,true,0x3F,true,
"I2C","data",3.62775044,8.07e-05,false,,,0x00
"I2C","stop",3.6278407,1.99999999e-08,,,,
"I2C","start",3.6278458,2.00000004e-08,,,,
"I2C","address",3.6278553,8.068e-05,true,0x3F,false,
"I2C","data",3.6279408,8.068e-05,true,,,0x14
"I2C","data",3.6280263,8.068e-05,true,,,0x10
"I2C","stop",3.62811654,1.99999999e-08,,,,
"I2C","start",3.629468,1.99999995e-08,,,,
"I2C","address",3.6294775,8.07e-05,true,0x3F,false,
"I2C","data",3.629563,8.07e-05,true,,,0x14
"I2C","stop",3.62965326,1.99999999e-08,,,,
"I2C","start",3.62965828,1.99999999e-08,,,,
"I2C","address",3.62966778,8.068e-05,true,0x3F,true,
"I2C","data",3.62975328,8.068e-05,false,,,0x10
"I2C","stop",3.62984352,1.99999999e-08,,,,
"I2C","start",3.63152954,1.99999999e-08,,,,
"I2C","address",3.63153904,8.068e-05,true,0x3F,false,
"I2C","data",3.63162454,8.068e-05,true,,,0x14
"I2C","stop",3.6317148,1.99999999e-08,,,,
"I2C","start",3.63171972,1.99999999e-08,,,,
"I2C","address",3.63172924,8.068e-05,true,0x3F,true,
"I2C","data",3.63181474,8.068e-05,false,,,0x10
"I2C","stop",3.63190498,2.00000004e-08,,,,
"I2C","start",3.63355908,1.99999999e-08,,,,
"I2C","address",3.6335686,8.068e-05,true,0x3F,false,
"I2C","data",3.6336541,8.068e-05,true,,,0x14
"I2C","stop",3.63374434,2.00000004e-08,,,,
"I2C","start",3.63374934,1.99999999e-08,,,,
"I2C","address",3.63375884,8.07e-05,true,0x3F,true,
"I2C","data",3.63384434,8.07e-05,false,,,0x10
"I2C","stop",3.6339346,1.99999999e-08,,,,
"I2C","start",3.63558872,2.00000004e-08,,,,
"I2C","address",3.63559822,8.07e-05,true,0x3F,false,
"I2C","data",3.63568372,8.07e-05,true,,,0x14
"I2C","stop",3.63577398,1.99999995e-08,,,,
"I2C","start",3.63577922,2.00000004e-08,,,,
"I2C","address",3.63578872,8.07e-05,true,0x3F,true,
"I2C","data",3.63587422,8.07e-05,false,,,0x10
"I2C","stop",3.63596448,1.99999999e-08,,,,
"I2C","start",3.63761844,2.00000004e-08,,,,
"I2C","address",3.63762794,8.07e-05,true,0x3F,false,
"I2C","data",3.63771344,8.07e-05,true,,,0x14
"I2C","stop",3.6378037,1.99999999e-08,,,,
"I2C","start",3.63780866,1.99999999e-08,,,,
"I2C","address",3.63781816,8.068e-05,true,0x3F,true,
"I2C","data",3.63790366,8.068e-05,false,,,0x10
"I2C","stop",3.6379939,1.99999999e-08,,,,
"I2C","start",3.63964832,1.99999995e-08,,,,
"I2C","address",3.63965782,8.068e-05,true,0x3F,false,
"I2C","data",3.63974332,8.068e-05,true,,,0x14
"I2C","stop",3.63983356,1.99999999e-08,,,,
"I2C","start",3.6398386,1.99999999e-08,,,,
"I2C","address",3.6398481,8.07e-05,true,0x3F,true,
"I2C","data",3.6399336,8.07e-05,false,,,0x00
"I2C","stop",3.64002386,2.00000004e-08,,,,
"I2C","start",3.6400289,1.99999999e-08,,,,
"I2C","address",3.6400384,8.07e-05,true,0x3F,false,
"I2C","data",3.6401239,8.068e-05,true,,,0x14
"I2C","stop",3.64021416,1.99999999e-08,,,,
"I2C","start",3.64021892,1.99999999e-08,,,,
"I2C","address",3.64022844,8.068e-05,true,0x3F,true,
"I2C","data",3.64031394,8.068e-05,false,,,0x00
"I2C","stop",3.64040418,1.99999999e-08,,,,
"I2C","start",3.64040964,1.99999995e-08,,,,
"I2C","address",3.64041914,8.068e-05,true,0x3F,false,
"I2C","data",3.64050464,8.068e-05,true,,,0x15
"I2C","stop",3.6405949,1.99999999e-08,,,,
"I2C","start",3.64059966,1.99999999e-08,,,,
"I2C","address",3.64060916,8.07e-05,true,0x3F,true,
"I2C","data",3.64069466,8.07e-05,true,,,0x00
"I2C","data",3.64078016,8.07e-05,true,,,0xFF
"I2C","data",3.64086566,8.07e-05,true,,,0xFF
"I2C","data",3.64095116,8.07e-05,true,,,0xFF
"I2C","data",3.64103666,8.07e-05,true,,,0xFF
"I2C","data",3.64112216,8.07e-05,true,,,0xFF
"I2C","data",3.64120766,8.07e-05,true,,,0xFF
"I2C","data",3.64129316,8.07e-05,true,,,0x00
"I2C","data",3.64137866,8.07e-05,true,,,0x1A
"I2C","data",3.64146416,8.07e-05,true,,,0xB3
"I2C","data",3.64154966,8.07e-05,true,,,0x0A
"I2C","data",3.64163516,8.07e-05,true,,,0x08
"I2C","data",3.64172066,8.07e-05,true,,,0x21
"I2C","data",3.64180616,8.068e-05,true,,,0xCB
"I2C","data",3.64189166,8.068e-05,true,,,0x01
"I2C","data",3.64197716,8.068e-05,false,,,0x00
"I2C","stop",3.64206742,1.99999999e-08,,,,
"I2C","start",3.64207284,1.99999999e-08,,,,
"I2C","address",3.64208236,8.068e-05,true,0x3F,false,
"I2C","data",3.64216786,8.068e-05,true,,,0x15
"I2C","data",3.64225336,8.068e-05,true,,,0x10
"I2C","stop",3.6423436,2.00000004e-08,,,,
"I2C","start",3.64234846,1.99999999e-08,,,,
"I2C","address",3.64235796,8.07e-05,true,0x3F,false,
"I2C","data",3.64244346,8.07e-05,true,,,0x27
"I2C","data",3.64252896,8.07e-05,true,,,0x04
"I2C","stop",3.64261922,1.99999999e-08,,,,
"I2C","start",3.64262438,1.99999995e-08,,,,
"I2C","address",3.64263388,8.07e-05,true,0x3F,false,
"I2C","data",3.64271938,8.07e-05,true,,,0x14
"I2C","stop",3.64280964,2.00000004e-08,,,,
"I2C","start",3.64281456,1.99999999e-08,,,,
"I2C","address",3.64282406,8.068e-05,true,0x3F,true,
"I2C","data",3.64290956,8.068e-05,false,,,0x00
"I2C","stop",3.6429998,1.99999999e-08,,,,
"I2C","start",3.64300484,1.99999999e-08,,,,
"I2C","address",3.64301434,8.068e-05,true,0x3F,false,
"I2C","data",3.64309984,8.068e-05,true,,,0x14
"I2C","data",3.64318534,8.068e-05,true,,,0x10
"I2C","stop",3.64327558,1.99999999e-08,,,,
"I2C","start",3.64472256,1.99999995e-08,,,,
"I2C","address",3.64473206,8.07e-05,true,0x3F,false,
"I2C","data",3.64481756,8.07e-05,true,,,0x14
"I2C","stop",3.64490782,2.00000004e-08,,,,
"I2C","start",3.64491298,1.99999999e-08,,,,
"I2C","address",3.64492248,8.068e-05,true,0x3F,true,
"I2C","data",3.64500798,8.068e-05,false,,,0x00
"I2C","stop",3.64509822,1.99999999e-08,,,,
"I2C","start",3.64510312,1.99999999e-08,,,,
"I2C","address",3.64511262,8.07e-05,true,0x3F,false,
"I2C","data",3.64519812,8.068e-05,true,,,0x14
"I2C","stop",3.64528838,1.99999995e-08,,,,
"I2C","start",3.64529314,1.99999999e-08,,,,
"I2C","address",3.64530266,8.068e-05,true,0x3F,true,
"I2C","data",3.64538816,8.068e-05,false,,,0x00
"I2C","stop",3.6454784,1.99999999e-08,,,,
"I2C","start",3.64548366,1.99999999e-08,,,,
"I2C","address",3.64549316,8.068e-05,true,0x3F,false,
"I2C","data",3.64557866,8.068e-05,true,,,0x27
"I2C","data",3.64566416,8.068e-05,true,,,0xF1
"I2C","stop",3.64575442,2.00000004e-08,,,,
"I2C","start",3.64575984,1.99999999e-08,,,,
"I2C","address",3.64576934,8.07e-05,true,0x3F,false,
"I2C","data",3.64585484,8.07e-05,true,,,0x14
"I2C","stop",3.6459451,1.99999999e-08,,,,
"I2C","start",3.64594988,2.00000004e-08,,,,
"I2C","address",3.64595938,8.068e-05,true,0x3F,true,
"I2C","data",3.64604488,8.068e-05,false,,,0x00
"I2C","stop",3.64613512,2.00000004e-08,,,,
"I2C","start",3.64614022,1.99999999e-08,,,,
"I2C","address",3.64614972,8.068e-05,true,0x3F,false,
"I2C","data",3.64623522,8.068e-05,true,,,0x14
"I2C","data",3.64632072,8.068e-05,true,,,0x10
"I2C","stop",3.64641096,2.00000004e-08,,,,
"I2C","start",3.64773552,2.00000004e-08,,,,
"I2C","address",3.64774502,8.07e-05,true,0x3F,false,
"I2C","data",3.64783052,8.07e-05,true,,,0x14
"I2C","stop",3.64792078,1.99999995e-08,,,,
"I2C","start",3.64792584,1.99999999e-08,,,,
"I2C","address",3.64793534,8.07e-05,true,0x3F,true,
"I2C","data",3.64802084,8.07e-05,false,,,0x10
"I2C","stop",3.6481111,1.99999999e-08,,,,
"I2C","start",3.64979702,2.00000004e-08,,,,
"I2C","address",3.64980652,8.07e-05,true,0x3F,false,
"I2C","data",3.64989202,8.07e-05,true,,,0x14
"I2C","stop",3.64998228,1.99999999e-08,,,,
"I2C","start",3.64998736,1.99999995e-08,,,,
"I2C","address",3.64999686,8.068e-05,true,0x3F,true,
"I2C","data",3.65008236,8.068e-05,false,,,0x10
"I2C","stop",3.6501726,2.00000004e-08,,,,
"I2C","start",3.65182656,1.99999999e-08,,,,
"I2C","address",3.65183606,8.068e-05,true,0x3F,false,
"I2C","data",3.65192156,8.068e-05,true,,,0x14
"I2C","stop",3.6520118,1.99999999e-08,,,,
"I2C","start",3.6520168,1.99999995e-08,,,,
"I2C","address",3.65202632,8.068e-05,true,0x3F,true,
"I2C","data",3.65211182,8.068e-05,false,,,0x10
"I2C","stop",3.65220206,1.99999999e-08,,,,
"I2C","start",3.65385632,1.99999999e-08,,,,
"I2C","address",3.65386584,8.068e-05,true,0x3F,false,
"I2C","data",3.65395134,8.068e-05,true,,,0x14
"I2C","stop",3.65404158,1.99999995e-08,,,,
"I2C","start",3.65404656,2.00000004e-08,,,,
"I2C","address",3.65405608,8.068e-05,true,0x3F,true,
"I2C","data",3.65414156,8.07e-05,false,,,0x10
"I2C","stop",3.65423182,1.99999999e-08,,,,
"I2C","start",3.65588626,1.99999999e-08,,,,
"I2C","address",3.65589576,8.068e-05,true,0x3F,false,
"I2C","data",3.65598126,8.068e-05,true,,,0x14
"I2C","stop",3.65607152,1.99999999e-08,,,,
"I2C","start",3.65607666,1.99999999e-08,,,,
"I2C","address",3.65608616,8.068e-05,true,0x3F,true,
"I2C","data",3.65617166,8.068e-05,false,,,0x00
"I2C","stop",3.6562619,1.99999999e-08,,,,
"I2C","start",3.6562669,1.99999999e-08,,,,
"I2C","address",3.6562764,8.068e-05,true,0x3F,false,
"I2C","data",3.6563619,8.068e-05,true,,,0x14
"I2C","stop",3.65645214,2.00000004e-08,,,,
"I2C","start",3.65645692,1.99999999e-08,,,,
"I2C","address",3.65646642,8.07e-05,true,0x3F,true,
"I2C","data",3.65655192,8.07e-05,false,,,0x00
"I2C","stop",3.65664218,1.99999999e-08,,,,
"I2C","start",3.65664736,1.99999999e-08,,,,
"I2C","address",3.65665686,8.07e-05,true,0x3F,false,
"I2C","data",3.65674236,8.07e-05,true,,,0x15
"I2C","stop",3.65683262,2.00000004e-08,,,,
"I2C","start",3.65683828,1.99999999e-08,,,,
"I2C","address",3.65684778,8.07e-05,true,0x3F,true,
"I2C","data",3.65693328,8.07e-05,true,,,0x18
"I2C","data",3.65701878,8.068e-05,true,,,0x16
"I2C","data",3.65710428,8.068e-05,true,,,0x01
"I2C","data",3.65718978,8.068e-05,true,,,0x03
"I2C","data",3.65727528,8.068e-05,true,,,0x80
"I2C","data",3.65736078,8.068e-05,true,,,0x30
"I2C","data",3.65744628,8.068e-05,true,,,0x1B
"I2C","data",3.65753178,8.068e-05,true,,,0x78
"I2C","data",3.65761728,8.068e-05,true,,,0x2A
"I2C","data",3.65770278,8.068e-05,true,,,0x23
"I2C","data",3.65778828,8.068e-05,true,,,0x55
"I2C","data",3.65787378,8.068e-05,true,,,0xA3
"I2C","data",3.65795928,8.068e-05,true,,,0x54
"I2C","data",3.65804478,8.068e-05,true,,,0x51
"I2C","data",3.65813028,8.068e-05,true,,,0x9E
"I2C","data",3.65821578,8.068e-05,false,,,0x27
"I2C","stop",3.65830602,1.99999999e-08,,,,
"I2C","start",3.65831152,2.00000004e-08,,,,
"I2C","address",3.65832102,8.068e-05,true,0x3F,false,
"I2C","data",3.65840652,8.068e-05,true,,,0x15
"I2C","data",3.65849202,8.068e-05,true,,,0x20
"I2C","stop",3.65858226,1.99999999e-08,,,,
"I2C","start",3.65858724,1.99999995e-08,,,,
"I2C","address",3.65859674,8.068e-05,true,0x3F,false,
"I2C","data",3.65868224,8.068e-05,true,,,0x27
"I2C","data",3.65876774,8.068e-05,true,,,0x04
"I2C","stop",3.65885798,1.99999995e-08,,,,
"I2C","start",3.6588631,1.99999999e-08,,,,
"I2C","address",3.6588726,8.068e-05,true,0x3F,false,
"I2C","data",3.6589581,8.068e-05,true,,,0x14
"I2C","stop",3.65904836,2.00000004e-08,,,,
"I2C","start",3.65905342,2.00000004e-08,,,,
"I2C","address",3.65906292,8.068e-05,true,0x3F,true,
"I2C","data",3.65914842,8.068e-05,false,,,0x00
"I2C","stop",3.65923868,1.99999999e-08,,,,
"I2C","start",3.65924378,1.99999999e-08,,,,
"I2C","address",3.65925328,8.07e-05,true,0x3F,false,
"I2C","data",3.65933878,8.07e-05,true,,,0x14
"I2C","data",3.65942428,8.07e-05,true,,,0x10
"I2C","stop",3.65951454,1.99999999e-08,,,,
"I2C","start",3.66096096,1.99999995e-08,,,,
"I2C","address",3.66097046,8.07e-05,true,0x3F,false,
"I2C","data",3.66105596,8.07e-05,true,,,0x14
"I2C","stop",3.66114622,1.99999999e-08,,,,
"I2C","start",3.66115116,1.99999995e-08,,,,
"I2C","address",3.66116066,8.07e-05,true,0x3F,true,
"I2C","data",3.66124616,8.07e-05,false,,,0x00
"I2C","stop",3.66133642,1.99999999e-08,,,,
"I2C","start",3.66134146,1.99999999e-08,,,,
"I2C","address",3.66135096,8.07e-05,true,0x3F,false,
"I2C","data",3.66143646,8.07e-05,true,,,0x14
"I2C","stop",3.66152672,1.99999999e-08,,,,
"I2C","start",3.6615315,1.99999999e-08,,,,
"I2C","address",3.661541,8.068e-05,true,0x3F,true,
"I2C","data",3.6616265,8.068e-05,false,,,0x00
"I2C","stop",3.66171674,1.99999995e-08,,,,
"I2C","start",3.66172196,1.99999999e-08,,,,
"I2C","address",3.66173146,8.07e-05,true,0x3F,false,
"I2C","data",3.66181696,8.07e-05,true,,,0x27
"I2C","data",3.66190246,8.07e-05,true,,,0xF1
"I2C","stop",3.66199272,1.99999999e-08,,,,
"I2C","start",3.661998,1.99999999e-08,,,,
"I2C","address",3.6620075,8.068e-05,true,0x3F,false,
"I2C","data",3.662093,8.068e-05,true,,,0x14
"I2C","stop",3.66218326,1.99999999e-08,,,,
"I2C","start",3.66218804,1.99999999e-08,,,,
"I2C","address",3.66219756,8.068e-05,true,0x3F,true,
"I2C","data",3.66228306,8.068e-05,false,,,0x00
"I2C","stop",3.6623733,1.99999999e-08,,,,
"I2C","start",3.66237826,1.99999999e-08,,,,
"I2C","address",3.66238778,8.068e-05,true,0x3F,false,
"I2C","data",3.66247326,8.07e-05,true,,,0x14
"I2C","data",3.66255876,8.07e-05,true,,,0x10
"I2C","stop",3.66264902,1.99999999e-08,,,,
"I2C","start",3.66397404,2.00000004e-08,,,,
"I2C","address",3.66398356,8.068e-05,true,0x3F,false,
"I2C","data",3.66406906,8.068e-05,true,,,0x14
"I2C","stop",3.6641593,1.99999999e-08,,,,
"I2C","start",3.66416442,1.99999999e-08,,,,
"I2C","address",3.66417392,8.07e-05,true,0x3F,true,
"I2C","data",3.66425944,8.068e-05,false,,,0x10
"I2C","stop",3.66434968,1.99999999e-08,,,,
"I2C","start",3.66603544,1.99999995e-08,,,,
"I2C","address",3.66604494,8.07e-05,true,0x3F,false,
"I2C","data",3.66613044,8.07e-05,true,,,0x14
"I2C","stop",3.6662207,1.99999999e-08,,,,
"I2C","start",3.66622578,1.99999995e-08,,,,
"I2C","address",3.66623528,8.07e-05,true,0x3F,true,
"I2C","data",3.66632078,8.07e-05,false,,,0x10
"I2C","stop",3.66641104,2.00000004e-08,,,,
"I2C","start",3.66806518,1.99999999e-08,,,,
"I2C","address",3.66807468,8.07e-05,true,0x3F,false,
"I2C","data",3.66816018,8.07e-05,true,,,0x14
"I2C","stop",3.66825044,1.99999999e-08,,,,
"I2C","start",3.66825562,1.99999999e-08,,,,
"I2C","address",3.66826512,8.07e-05,true,0x3F,true,
"I2C","data",3.66835062,8.07e-05,false,,,0x10
"I2C","stop",3.66844088,1.99999995e-08,,,,
"I2C","start",3.67009508,1.99999999e-08,,,,
"I2C","address",3.67010458,8.07e-05,true,0x3F,false,
"I2C","data",3.67019008,8.07e-05,true,,,0x14
"I2C","stop",3.67028034,1.99999999e-08,,,,
"I2C","start",3.67028544,2.00000004e-08,,,,
"I2C","address",3.67029494,8.068e-05,true,0x3F,true,
"I2C","data",3.67038044,8.068e-05,false,,,0x10
"I2C","stop",3.67047068,1.99999999e-08,,,,
"I2C","start",3.67212486,2.00000004e-08,,,,
"I2C","address",3.67213436,8.07e-05,true,0x3F,false,
"I2C","data",3.67221986,8.068e-05,true,,,0x14
"I2C","stop",3.67231012,1.99999999e-08,,,,
"I2C","start",3.6723153,1.99999999e-08,,,,
"I2C","address",3.67232482,8.068e-05,true,0x3F,true,
"I2C","data",3.67241032,8.068e-05,false,,,0x00
"I2C","stop",3.67250056,1.99999999e-08,,,,
"I2C","start",3.67250564,2.00000004e-08,,,,
"I2C","address",3.67251516,8.068e-05,true,0x3F,false,
"I2C","data",3.67260066,8.068e-05,true,,,0x14
"I2C","stop",3.6726909,1.99999999e-08,,,,
"I2C","start",3.67269568,1.99999999e-08,,,,
"I2C","address",3.67270518,8.068e-05,true,0x3F,true,
"I2C","data",3.67279068,8.068e-05,false,,,0x00
"I2C","stop",3.67288094,1.99999999e-08,,,,
"I2C","start",3.67288612,2.00000004e-08,,,,
"I2C","address",3.67289562,8.068e-05,true,0x3F,false,
"I2C","data",3.67298112,8.068e-05,true,,,0x15
"I2C","stop",3.67307136,2.00000004e-08,,,,
"I2C","start",3.67307614,1.99999999e-08,,,,
"I2C","address",3.67308564,8.07e-05,true,0x3F,true,
"I2C","data",3.67317114,8.07e-05,true,,,0x11
"I2C","data",3.67325664,8.07e-05,true,,,0x50
"I2C","data",3.67334214,8.07e-05,true,,,0x54
"I2C","data",3.67342764,8.07e-05,true,,,0xA5
"I2C","data",3.67351314,8.07e-05,true,,,0x4B
"I2C","data",3.67359864,8.07e-05,true,,,0x00
"I2C","data",3.67368414,8.07e-05,true,,,0x81
"I2C","data",3.67376964,8.07e-05,true,,,0x80
"I2C","data",3.67385514,8.068e-05,true,,,0xA9
"I2C","data",3.67394064,8.07e-05,true,,,0x40
"I2C","data",3.67402614,8.068e-05,true,,,0x95
"I2C","data",3.67411164,8.068e-05,true,,,0x00
"I2C","data",3.67419714,8.068e-05,true,,,0xB3
"I2C","data",3.67428264,8.068e-05,true,,,0x00
"I2C","data",3.67436814,8.068e-05,true,,,0x01
"I2C","data",3.67445364,8.068e-05,false,,,0x01
"I2C","stop",3.6745439,1.99999999e-08,,,,
"I2C","start",3.67454942,1.99999999e-08,,,,
"I2C","address",3.67455892,8.07e-05,true,0x3F,false,
"I2C","data",3.67464442,8.07e-05,true,,,0x15
"I2C","data",3.67472992,8.07e-05,true,,,0x30
"I2C","stop",3.67482018,1.99999999e-08,,,,
"I2C","start",3.6748251,1.99999999e-08,,,,
"I2C","address",3.6748346,8.068e-05,true,0x3F,false,
"I2C","data",3.6749201,8.068e-05,true,,,0x27
"I2C","data",3.6750056,8.068e-05,true,,,0x04
"I2C","stop",3.67509584,1.99999999e-08,,,,
"I2C","start",3.67510086,1.99999999e-08,,,,
"I2C","address",3.67511036,8.068e-05,true,0x3F,false,
"I2C","data",3.67519586,8.068e-05,true,,,0x14
"I2C","stop",3.6752861,1.99999999e-08,,,,
"I2C","start",3.67529104,1.99999999e-08,,,,
"I2C","address",3.67530054,8.068e-05,true,0x3F,true,
"I2C","data",3.67538604,8.068e-05,false,,,0x00
"I2C","stop",3.67547628,2.00000004e-08,,,,
"I2C","start",3.67548132,2.00000004e-08,,,,
"I2C","address",3.67549082,8.068e-05,true,0x3F,false,
"I2C","data",3.67557632,8.068e-05,true,,,0x14
"I2C","data",3.67566182,8.068e-05,true,,,0x10
"I2C","stop",3.67575206,1.99999999e-08,,,,
"I2C","start",3.67719936,1.99999999e-08,,,,
"I2C","address",3.67720886,8.068e-05,true,0x3F,false,
"I2C","data",3.67729436,8.068e-05,true,,,0x14
"I2C","stop",3.6773846,2.00000004e-08,,,,
"I2C","start",3.67738976,1.99999999e-08,,,,
"I2C","address",3.67739926,8.068e-05,true,0x3F,true,
"I2C","data",3.67748476,8.068e-05,false,,,0x00
"I2C","stop",3.67757502,1.99999999e-08,,,,
"I2C","start",3.67758012,1.99999999e-08,,,,
"I2C","address",3.67758964,8.068e-05,true,0x3F,false,
"I2C","data",3.67767512,8.07e-05,true,,,0x14
"I2C","stop",3.67776538,2.00000004e-08,,,,
"I2C","start",3.67777016,1.99999999e-08,,,,
"I2C","address",3.67777966,8.068e-05,true,0x3F,true,
"I2C","data",3.67786516,8.068e-05,false,,,0x00
"I2C","stop",3.67795542,1.99999999e-08,,,,
"I2C","start",3.67796052,1.99999999e-08,,,,
"I2C","address",3.67797002,8.07e-05,true,0x3F,false,
"I2C","data",3.67805552,8.07e-05,true,,,0x27
"I2C","data",3.67814102,8.07e-05,true,,,0xF1
"I2C","stop",3.67823128,2.00000004e-08,,,,
"I2C","start",3.6782365,1.99999999e-08,,,,
"I2C","address",3.678246,8.07e-05,true,0x3F,false,
"I2C","data",3.6783315,8.07e-05,true,,,0x14
"I2C","stop",3.67842176,1.99999995e-08,,,,
"I2C","start",3.67842654,2.00000004e-08,,,,
"I2C","address",3.67843604,8.07e-05,true,0x3F,true,
"I2C","data",3.67852154,8.07e-05,false,,,0x00
"I2C","stop",3.6786118,1.99999999e-08,,,,
"I2C","start",3.67861686,1.99999999e-08,,,,
"I2C","address",3.67862636,8.068e-05,true,0x3F,false,
"I2C","data",3.67871186,8.068e-05,true,,,0x14
"I2C","data",3.67879736,8.068e-05,true,,,0x10
"I2C","stop",3.6788876,1.99999999e-08,,,,
"I2C","start",3.68021242,1.99999999e-08,,,,
"I2C","address",3.68022192,8.068e-05,true,0x3F,false,
"I2C","data",3.68030742,8.068e-05,true,,,0x14
"I2C","stop",3.68039766,1.99999999e-08,,,,
"I2C","start",3.68040284,1.99999999e-08,,,,
"I2C","address",3.68041234,8.068e-05,true,0x3F,true,
"I2C","data",3.68049784,8.068e-05,false,,,0x10
"I2C","stop",3.68058808,1.99999999e-08,,,,
"I2C","start",3.68227398,1.99999995e-08,,,,
"I2C","address",3.68228348,8.068e-05,true,0x3F,false,
"I2C","data",3.68236898,8.068e-05,true,,,0x14
"I2C","stop",3.68245922,1.99999999e-08,,,,
"I2C","start",3.68246442,1.99999995e-08,,,,
"I2C","address",3.68247392,8.068e-05,true,0x3F,true,
"I2C","data",3.68255942,8.068e-05,false,,,0x10
"I2C","stop",3.68264968,1.99999999e-08,,,,
"I2C","start",3.68430342,1.99999995e-08,,,,
"I2C","address",3.68431292,8.07e-05,true,0x3F,false,
"I2C","data",3.68439844,8.068e-05,true,,,0x14
"I2C","stop",3.68448868,2.00000004e-08,,,,
"I2C","start",3.68449358,2.00000004e-08,,,,
"I2C","address",3.6845031,8.068e-05,true,0x3F,true,
"I2C","data",3.68458858,8.07e-05,false,,,0x10
"I2C","stop",3.68467884,1.99999999e-08,,,,
"I2C","start",3.68633292,1.99999999e-08,,,,
"I2C","address",3.68634242,8.068e-05,true,0x3F,false,
"I2C","data",3.68642792,8.068e-05,true,,,0x14
"I2C","stop",3.68651816,1.99999999e-08,,,,
"I2C","start",3.68652338,1.99999999e-08,,,,
"I2C","address",3.68653288,8.07e-05,true,0x3F,true,
"I2C","data",3.68661838,8.07e-05,false,,,0x10
"I2C","stop",3.68670864,1.99999999e-08,,,,
"I2C","start",3.6883626,1.99999999e-08,,,,
"I2C","address",3.6883721,8.07e-05,true,0x3F,false,
"I2C","data",3.6884576,8.07e-05,true,,,0x14
"I2C","stop",3.68854786,1.99999999e-08,,,,
"I2C","start",3.6885528,1.99999999e-08,,,,
"I2C","address",3.6885623,8.07e-05,true,0x3F,true,
"I2C","data",3.6886478,8.07e-05,false,,,0x00
"I2C","stop",3.68873806,1.99999995e-08,,,,
"I2C","start",3.68874302,1.99999999e-08,,,,
"I2C","address",3.68875252,8.07e-05,true,0x3F,false,
"I2C","data",3.68883802,8.07e-05,true,,,0x14
"I2C","stop",3.68892828,2.00000004e-08,,,,
"I2C","start",3.68893304,1.99999999e-08,,,,
"I2C","address",3.68894256,8.068e-05,true,0x3F,true,
"I2C","data",3.68902806,8.068e-05,false,,,0x00
"I2C","stop",3.6891183,1.99999999e-08,,,,
"I2C","start",3.68912344,1.99999999e-08,,,,
"I2C","address",3.68913296,8.068e-05,true,0x3F,false,
"I2C","data",3.68921846,8.068e-05,true,,,0x15
"I2C","stop",3.6893087,1.99999999e-08,,,,
"I2C","start",3.68931348,1.99999995e-08,,,,
"I2C","address",3.68932298,8.068e-05,true,0x3F,true,
"I2C","data",3.68940848,8.068e-05,true,,,0x01
"I2C","data",3.68949398,8.068e-05,true,,,0x01
"I2C","data",3.68957948,8.068e-05,true,,,0x01
"I2C","data",3.68966498,8.068e-05,true,,,0x01
"I2C","data",3.68975048,8.068e-05,true,,,0x01
"I2C","data",3.68983598,8.068e-05,true,,,0x01
"I2C","data",3.68992148,8.068e-05,true,,,0x02
"I2C","data",3.69000698,8.068e-05,true,,,0x3A
"I2C","data",3.69009248,8.068e-05,true,,,0x80
"I2C","data",3.69017798,8.068e-05,true,,,0x18
"I2C","data",3.69026348,8.068e-05,true,,,0x71
"I2C","data",3.69034898,8.068e-05,true,,,0x38
"I2C","data",3.69043448,8.068e-05,true,,,0x2D
"I2C","data",3.69051998,8.068e-05,true,,,0x40
"I2C","data",3.69060548,8.068e-05,true,,,0x58
"I2C","data",3.69069098,8.068e-05,false,,,0x2C
"I2C","stop",3.69078122,2.00000004e-08,,,,
"I2C","start",3.6907867,2.00000004e-08,,,,
"I2C","address",3.6907962,8.068e-05,true,0x3F,false,
"I2C","data",3.6908817,8.068e-05,true,,,0x15
"I2C","data",3.6909672,8.068e-05,true,,,0x40
"I2C","stop",3.69105746,1.99999999e-08,,,,
"I2C","start",3.69106242,1.99999999e-08,,,,
"I2C","address",3.69107192,8.068e-05,true,0x3F,false,
"I2C","data",3.69115742,8.068e-05,true,,,0x27
"I2C","data",3.69124292,8.068e-05,true,,,0x04
"I2C","stop",3.69133318,1.99999999e-08,,,,
"I2C","start",3.69133828,1.99999999e-08,,,,
"I2C","address",3.69134778,8.07e-05,true,0x3F,false,
"I2C","data",3.69143328,8.07e-05,true,,,0x14
"I2C","stop",3.69152354,1.99999995e-08,,,,
"I2C","start",3.69152854,1.99999999e-08,,,,
"I2C","address",3.69153804,8.068e-05,true,0x3F,true,
"I2C","data",3.69162354,8.068e-05,false,,,0x00
"I2C","stop",3.69171378,1.99999999e-08,,,,
"I2C","start",3.69171898,1.99999999e-08,,,,
"I2C","address",3.69172848,8.07e-05,true,0x3F,false,
"I2C","data",3.69181398,8.07e-05,true,,,0x14
"I2C","data",3.69189948,8.07e-05,true,,,0x10
"I2C","stop",3.69198974,1.99999999e-08,,,,
"I2C","start",3.69340576,1.99999999e-08,,,,
"I2C","address",3.69341526,8.068e-05,true,0x3F,false,
"I2C","data",3.69350076,8.068e-05,true,,,0x14
"I2C","stop",3.693591,1.99999999e-08,,,,
"I2C","start",3.693596,2.00000004e-08,,,,
"I2C","address",3.6936055,8.068e-05,true,0x3F,true,
"I2C","data",3.693691,8.068e-05,false,,,0x00
"I2C","stop",3.69378124,2.00000004e-08,,,,
"I2C","start",3.69378634,1.99999995e-08,,,,
"I2C","address",3.69379584,8.068e-05,true,0x3F,false,
"I2C","data",3.69388134,8.068e-05,true,,,0x14
"I2C","stop",3.69397158,1.99999999e-08,,,,
"I2C","start",3.69397636,1.99999999e-08,,,,
"I2C","address",3.69398586,8.07e-05,true,0x3F,true,
"I2C","data",3.69407136,8.07e-05,false,,,0x00
"I2C","stop",3.69416162,1.99999999e-08,,,,
"I2C","start",3.6941668,1.99999999e-08,,,,
"I2C","address",3.6941763,8.068e-05,true,0x3F,false,
"I2C","data",3.6942618,8.068e-05,true,,,0x27
"I2C","data",3.6943473,8.068e-05,true,,,0xF1
"I2C","stop",3.69443756,2.00000004e-08,,,,
"I2C","start",3.69444788,2.00000004e-08,,,,
"I2C","address",3.6944574,8.068e-05,true,0x3F,false,
"I2C","data",3.6945429,8.068e-05,true,,,0x14
"I2C","stop",3.69463314,1.99999999e-08,,,,
"I2C","start",3.69463792,1.99999995e-08,,,,
"I2C","address",3.69464742,8.068e-05,true,0x3F,true,
"I2C","data",3.69473292,8.068e-05,false,,,0x00
"I2C","stop",3.69482318,1.99999999e-08,,,,
"I2C","start",3.69482822,1.99999999e-08,,,,
"I2C","address",3.69483772,8.068e-05,true,0x3F,false,
"I2C","data",3.69492322,8.068e-05,true,,,0x14
"I2C","data",3.69500872,8.068e-05,true,,,0x10
"I2C","stop",3.69509896,1.99999999e-08,,,,
"I2C","start",3.69645034,1.99999995e-08,,,,
"I2C","address",3.69645984,8.068e-05,true,0x3F,false,
"I2C","data",3.69654534,8.068e-05,true,,,0x14
"I2C","stop",3.6966356,1.99999999e-08,,,,
"I2C","start",3.69664056,1.99999995e-08,,,,
"I2C","address",3.69665006,8.07e-05,true,0x3F,true,
"I2C","data",3.69673556,8.07e-05,false,,,0x10
"I2C","stop",3.69682582,1.99999999e-08,,,,
"I2C","start",3.69851138,2.00000004e-08,,,,
"I2C","address",3.69852088,8.07e-05,true,0x3F,false,
"I2C","data",3.69860638,8.07e-05,true,,,0x14
"I2C","stop",3.69869664,1.99999999e-08,,,,
"I2C","start",3.69870182,1.99999999e-08,,,,
"I2C","address",3.69871132,8.068e-05,true,0x3F,true,
"I2C","data",3.69879682,8.068e-05,false,,,0x10
"I2C","stop",3.69888706,1.99999999e-08,,,,
"I2C","start",3.70054138,1.99999999e-08,,,,
"I2C","address",3.70055088,8.07e-05,true,0x3F,false,
"I2C","data",3.70063638,8.07e-05,true,,,0x14
"I2C","stop",3.70072664,1.99999999e-08,,,,
"I2C","start",3.70073166,1.99999995e-08,,,,
"I2C","address",3.70074118,8.068e-05,true,0x3F,true,
"I2C","data",3.70082668,8.068e-05,false,,,0x10
"I2C","stop",3.70091692,1.99999999e-08,,,,
"I2C","start",3.70257108,2.00000004e-08,,,,
"I2C","address",3.7025806,8.068e-05,true,0x3F,false,
"I2C","data",3.7026661,8.068e-05,true,,,0x14
"I2C","stop",3.70275634,1.99999999e-08,,,,
"I2C","start",3.70276206,1.99999999e-08,,,,
"I2C","address",3.70277156,8.068e-05,true,0x3F,true,
"I2C","data",3.70285706,8.068e-05,false,,,0x10
"I2C","stop",3.70294732,2.00000004e-08,,,,
"I2C","start",3.70460064,2.00000004e-08,,,,
"I2C","address",3.70461014,8.07e-05,true,0x3F,false,
"I2C","data",3.70469564,8.07e-05,true,,,0x14
"I2C","stop",3.7047859,1.99999999e-08,,,,
"I2C","start",3.70479096,1.99999999e-08,,,,
"I2C","address",3.70480046,8.07e-05,true,0x3F,true,
"I2C","data",3.70488596,8.07e-05,false,,,0x00
"I2C","stop",3.70497622,1.99999999e-08,,,,
"I2C","start",3.70498114,1.99999995e-08,,,,
"I2C","address",3.70499064,8.07e-05,true,0x3F,false,
"I2C","data",3.70507614,8.07e-05,true,,,0x14
"I2C","stop",3.7051664,1.99999999e-08,,,,
"I2C","start",3.70517118,2.00000004e-08,,,,
"I2C","address",3.70518068,8.068e-05,true,0x3F,true,
"I2C","data",3.70526618,8.068e-05,false,,,0x00
"I2C","stop",3.70535642,1.99999999e-08,,,,
"I2C","start",3.70536166,2.00000004e-08,,,,
"I2C","address",3.70537116,8.07e-05,true,0x3F,false,
"I2C","data",3.70545666,8.07e-05,true,,,0x15
"I2C","stop",3.70554692,1.99999999e-08,,,,
"I2C","start",3.7055517,1.99999999e-08,,,,
"I2C","address",3.7055612,8.068e-05,true,0x3F,true,
"I2C","data",3.7056467,8.068e-05,true,,,0x45
"I2C","data",3.7057322,8.068e-05,true,,,0x00
"I2C","data",3.7058177,8.068e-05,true,,,0xDE
"I2C","data",3.7059032,8.068e-05,true,,,0x0C
"I2C","data",3.7059887,8.068e-05,true,,,0x11
"I2C","data",3.7060742,8.068e-05,true,,,0x00
"I2C","data",3.7061597,8.068e-05,true,,,0x00
"I2C","data",3.70624518,8.07e-05,true,,,0x1E
"I2C","data",3.70633068,8.07e-05,true,,,0x00
"I2C","data",3.70641618,8.07e-05,true,,,0x00
"I2C","data",3.70650168,8.07e-05,true,,,0x00
"I2C","data",3.70658718,8.07e-05,true,,,0xFD
"I2C","data",3.70667268,8.07e-05,true,,,0x00
"I2C","data",3.70675818,8.07e-05,true,,,0x32
"I2C","data",3.70684368,8.07e-05,true,,,0x4C
"I2C","data",3.70692918,8.07e-05,false,,,0x1E
"I2C","stop",3.70701944,1.99999999e-08,,,,
"I2C","start",3.70702494,1.99999999e-08,,,,
"I2C","address",3.70703444,8.068e-05,true,0x3F,false,
"I2C","data",3.70711994,8.068e-05,true,,,0x15
"I2C","data",3.70720544,8.068e-05,true,,,0x50
"I2C","stop",3.70729568,1.99999999e-08,,,,
"I2C","start",3.70730068,1.99999999e-08,,,,
"I2C","address",3.70731018,8.068e-05,true,0x3F,false,
"I2C","data",3.70739568,8.07e-05,true,,,0x27
"I2C","data",3.70748118,8.068e-05,true,,,0x04
"I2C","stop",3.70757144,1.99999999e-08,,,,
"I2C","start",3.7075766,2.00000004e-08,,,,
"I2C","address",3.7075861,8.068e-05,true,0x3F,false,
"I2C","data",3.7076716,8.068e-05,true,,,0x14
"I2C","stop",3.70776186,1.99999999e-08,,,,
"I2C","start",3.7077668,1.99999999e-08,,,,
"I2C","address",3.7077763,8.07e-05,true,0x3F,true,
"I2C","data",3.7078618,8.07e-05,false,,,0x00
"I2C","stop",3.70795206,1.99999999e-08,,,,
"I2C","start",3.70795704,1.99999999e-08,,,,
"I2C","address",3.70796654,8.068e-05,true,0x3F,false,
"I2C","data",3.70805204,8.068e-05,true,,,0x14
"I2C","data",3.70813754,8.068e-05,true,,,0x10
"I2C","stop",3.70822778,1.99999999e-08,,,,
"I2C","start",3.709675,2.00000004e-08,,,,
"I2C","address",3.7096845,8.07e-05,true,0x3F,false,
"I2C","data",3.70977,8.07e-05,true,,,0x14
"I2C","stop",3.70986026,1.99999999e-08,,,,
"I2C","start",3.70986532,1.99999999e-08,,,,
"I2C","address",3.70987482,8.07e-05,true,0x3F,true,
"I2C","data",3.70996032,8.07e-05,false,,,0x00
"I2C","stop",3.71005058,1.99999999e-08,,,,
"I2C","start",3.71005568,1.99999999e-08,,,,
"I2C","address",3.71006518,8.07e-05,true,0x3F,false,
"I2C","data",3.71015068,8.07e-05,true,,,0x14
"I2C","stop",3.71024094,2.00000004e-08,,,,
"I2C","start",3.71024572,1.99999999e-08,,,,
"I2C","address",3.71025522,8.068e-05,true,0x3F,true,
"I2C","data",3.71034072,8.068e-05,false,,,0x00
"I2C","stop",3.71043096,1.99999999e-08,,,,
"I2C","start",3.7104363,1.99999999e-08,,,,
"I2C","address",3.7104458,8.07e-05,true,0x3F,false,
"I2C","data",3.7105313,8.068e-05,true,,,0x27
"I2C","data",3.7106168,8.07e-05,true,,,0xF1
"I2C","stop",3.71070706,2.00000004e-08,,,,
"I2C","start",3.71071248,1.99999999e-08,,,,
"I2C","address",3.710722,8.068e-05,true,0x3F,false,
"I2C","data",3.7108075,8.068e-05,true,,,0x14
"I2C","stop",3.71089774,1.99999999e-08,,,,
"I2C","start",3.71090252,1.99999999e-08,,,,
"I2C","address",3.71091202,8.068e-05,true,0x3F,true,
"I2C","data",3.71099752,8.068e-05,false,,,0x00
"I2C","stop",3.71108778,1.99999999e-08,,,,
"I2C","start",3.7110928,2.00000004e-08,,,,
"I2C","address",3.7111023,8.068e-05,true,0x3F,false,
"I2C","data",3.7111878,8.068e-05,true,,,0x14
"I2C","data",3.7112733,8.068e-05,true,,,0x10
"I2C","stop",3.71136356,1.99999999e-08,,,,
"I2C","start",3.71268818,2.00000004e-08,,,,
"I2C","address",3.71269768,8.07e-05,true,0x3F,false,
"I2C","data",3.71278318,8.07e-05,true,,,0x14
"I2C","stop",3.71287344,1.99999995e-08,,,,
"I2C","start",3.71287854,1.99999999e-08,,,,
"I2C","address",3.71288804,8.07e-05,true,0x3F,true,
"I2C","data",3.71297354,8.07e-05,false,,,0x10
"I2C","stop",3.7130638,1.99999999e-08,,,,
"I2C","start",3.71474938,1.99999999e-08,,,,
"I2C","address",3.71475888,8.07e-05,true,0x3F,false,
"I2C","data",3.71484438,8.07e-05,true,,,0x14
"I2C","stop",3.71493464,1.99999999e-08,,,,
"I2C","start",3.71493962,1.99999999e-08,,,,
"I2C","address",3.71494912,8.068e-05,true,0x3F,true,
"I2C","data",3.71503462,8.068e-05,false,,,0x10
"I2C","stop",3.71512486,1.99999999e-08,,,,
"I2C","start",3.71677908,2.00000004e-08,,,,
"I2C","address",3.71678858,8.07e-05,true,0x3F,false,
"I2C","data",3.71687408,8.07e-05,true,,,0x14
"I2C","stop",3.71696434,1.99999999e-08,,,,
"I2C","start",3.7169694,1.99999999e-08,,,,
"I2C","address",3.7169789,8.07e-05,true,0x3F,true,
"I2C","data",3.7170644,8.068e-05,false,,,0x10
"I2C","stop",3.71715466,2.00000004e-08,,,,
"I2C","start",3.71880852,1.99999999e-08,,,,
"I2C","address",3.71881804,8.068e-05,true,0x3F,false,
"I2C","data",3.71890354,8.068e-05,true,,,0x14
"I2C","stop",3.71899378,1.99999999e-08,,,,
"I2C","start",3.71899876,2.00000004e-08,,,,
"I2C","address",3.71900828,8.068e-05,true,0x3F,true,
"I2C","data",3.71909378,8.068e-05,false,,,0x10
"I2C","stop",3.71918402,1.99999999e-08,,,,
"I2C","start",3.72083848,2.00000004e-08,,,,
"I2C","address",3.72084798,8.068e-05,true,0x3F,false,
"I2C","data",3.72093348,8.068e-05,true,,,0x14
"I2C","stop",3.72102374,1.99999999e-08,,,,
"I2C","start",3.72102866,1.99999999e-08,,,,
"I2C","address",3.72103816,8.07e-05,true,0x3F,true,
"I2C","data",3.72112366,8.07e-05,false,,,0x00
"I2C","stop",3.72121392,2.00000004e-08,,,,
"I2C","start",3.72121896,2.00000004e-08,,,,
"I2C","address",3.72122846,8.068e-05,true,0x3F,false,
"I2C","data",3.72131396,8.068e-05,true,,,0x14
"I2C","stop",3.7214042,2.00000004e-08,,,,
"I2C","start",3.72140898,1.99999999e-08,,,,
"I2C","address",3.72141848,8.07e-05,true,0x3F,true,
"I2C","data",3.72150398,8.07e-05,false,,,0x00
"I2C","stop",3.72159424,1.99999999e-08,,,,
"I2C","start",3.72160024,2.00000004e-08,,,,
"I2C","address",3.72160974,8.068e-05,true,0x3F,false,
"I2C","data",3.72169524,8.068e-05,true,,,0x15
"I2C","stop",3.72178548,2.00000004e-08,,,,
"I2C","start",3.72179026,1.99999999e-08,,,,
"I2C","address",3.72179976,8.07e-05,true,0x3F,true,
"I2C","data",3.72188526,8.07e-05,true,,,0x52
"I2C","data",3.72197076,8.07e-05,true,,,0x10
"I2C","data",3.72205626,8.068e-05,true,,,0x00
"I2C","data",3.72214176,8.068e-05,true,,,0x0A
"I2C","data",3.72222726,8.068e-05,true,,,0x20
"I2C","data",3.72231276,8.068e-05,true,,,0x20
"I2C","data",3.72239826,8.068e-05,true,,,0x20
"I2C","data",3.72248376,8.068e-05,true,,,0x20
"I2C","data",3.72256926,8.068e-05,true,,,0x20
"I2C","data",3.72265476,8.068e-05,true,,,0x20
"I2C","data",3.72274026,8.068e-05,true,,,0x00
"I2C","data",3.72282576,8.068e-05,true,,,0x00
"I2C","data",3.72291126,8.068e-05,true,,,0x00
"I2C","data",3.72299676,8.068e-05,true,,,0xFC
"I2C","data",3.72308226,8.068e-05,true,,,0x00
"I2C","data",3.72316776,8.068e-05,false,,,0x4C
"I2C","stop",3.723258,1.99999999e-08,,,,
"I2C","start",3.72326332,1.99999999e-08,,,,
"I2C","address",3.72327282,8.07e-05,true,0x3F,false,
"I2C","data",3.72335832,8.07e-05,true,,,0x15
"I2C","data",3.72344382,8.07e-05,true,,,0x60
"I2C","stop",3.72353408,2.00000004e-08,,,,
"I2C","start",3.7235391,1.99999999e-08,,,,
"I2C","address",3.7235486,8.068e-05,true,0x3F,false,
"I2C","data",3.7236341,8.068e-05,true,,,0x27
"I2C","data",3.7237196,8.068e-05,true,,,0x04
"I2C","stop",3.72380984,1.99999999e-08,,,,
"I2C","start",3.72381488,1.99999999e-08,,,,
"I2C","address",3.72382438,8.068e-05,true,0x3F,false,
"I2C","data",3.72390988,8.068e-05,true,,,0x14
"I2C","stop",3.72400014,2.00000004e-08,,,,
"I2C","start",3.72400494,1.99999999e-08,,,,
"I2C","address",3.72401446,8.068e-05,true,0x3F,true,
"I2C","data",3.72409996,8.068e-05,false,,,0x00
"I2C","stop",3.7241902,1.99999999e-08,,,,
"I2C","start",3.72419632,2.00000004e-08,,,,
"I2C","address",3.72420584,8.068e-05,true,0x3F,false,
"I2C","data",3.72429132,8.07e-05,true,,,0x14
"I2C","data",3.72437682,8.07e-05,true,,,0x10
"I2C","stop",3.72446708,1.99999995e-08,,,,
"I2C","start",3.72591296,1.99999999e-08,,,,
"I2C","address",3.72592246,8.07e-05,true,0x3F,false,
"I2C","data",3.72600796,8.07e-05,true,,,0x14
"I2C","stop",3.72609822,1.99999999e-08,,,,
"I2C","start",3.72610412,1.99999999e-08,,,,
"I2C","address",3.72611362,8.068e-05,true,0x3F,true,
"I2C","data",3.72619912,8.068e-05,false,,,0x00
"I2C","stop",3.72628936,1.99999995e-08,,,,
"I2C","start",3.72629442,2.00000004e-08,,,,
"I2C","address",3.72630392,8.07e-05,true,0x3F,false,
"I2C","data",3.72638942,8.07e-05,true,,,0x14
"I2C","stop",3.72647968,1.99999995e-08,,,,
"I2C","start",3.72648446,1.99999999e-08,,,,
"I2C","address",3.72649396,8.068e-05,true,0x3F,true,
"I2C","data",3.72657946,8.068e-05,false,,,0x00
"I2C","stop",3.7266697,1.99999999e-08,,,,
"I2C","start",3.72667486,1.99999999e-08,,,,
"I2C","address",3.72668436,8.07e-05,true,0x3F,false,
"I2C","data",3.72676986,8.07e-05,true,,,0x27
"I2C","data",3.72685536,8.07e-05,true,,,0xF1
"I2C","stop",3.72694562,1.99999999e-08,,,,
"I2C","start",3.72695104,2.00000004e-08,,,,
"I2C","address",3.72696054,8.07e-05,true,0x3F,false,
"I2C","data",3.72704604,8.068e-05,true,,,0x14
"I2C","stop",3.7271363,1.99999999e-08,,,,
"I2C","start",3.72714106,1.99999999e-08,,,,
"I2C","address",3.72715058,8.068e-05,true,0x3F,true,
"I2C","data",3.72723608,8.068e-05,false,,,0x00
"I2C","stop",3.72732632,1.99999999e-08,,,,
"I2C","start",3.72733156,1.99999999e-08,,,,
"I2C","address",3.72734106,8.068e-05,true,0x3F,false,
"I2C","data",3.72742656,8.068e-05,true,,,0x14
"I2C","data",3.72751206,8.068e-05,true,,,0x10
"I2C","stop",3.72760232,1.99999999e-08,,,,
"I2C","start",3.72892592,1.99999999e-08,,,,
"I2C","address",3.72893542,8.068e-05,true,0x3F,false,
"I2C","data",3.72902092,8.068e-05,true,,,0x14
"I2C","stop",3.72911118,2.00000004e-08,,,,
"I2C","start",3.72911614,1.99999995e-08,,,,
"I2C","address",3.72912564,8.068e-05,true,0x3F,true,
"I2C","data",3.72921114,8.068e-05,false,,,0x10
"I2C","stop",3.7293014,1.99999999e-08,,,,
"I2C","start",3.73098724,1.99999999e-08,,,,
"I2C","address",3.73099674,8.068e-05,true,0x3F,false,
"I2C","data",3.73108224,8.068e-05,true,,,0x14
"I2C","stop",3.73117248,1.99999999e-08,,,,
"I2C","start",3.7311775,2.00000004e-08,,,,
"I2C","address",3.731187,8.07e-05,true,0x3F,true,
"I2C","data",3.7312725,8.07e-05,false,,,0x10
"I2C","stop",3.73136276,1.99999999e-08,,,,
"I2C","start",3.73301698,1.99999999e-08,,,,
"I2C","address",3.73302648,8.068e-05,true,0x3F,false,
"I2C","data",3.73311198,8.068e-05,true,,,0x14
"I2C","stop",3.73320222,1.99999995e-08,,,,
"I2C","start",3.73320716,1.99999999e-08,,,,
"I2C","address",3.73321666,8.068e-05,true,0x3F,true,
"I2C","data",3.73330216,8.068e-05,false,,,0x10
"I2C","stop",3.7333924,1.99999999e-08,,,,
"I2C","start",3.73504676,1.99999999e-08,,,,
"I2C","address",3.73505626,8.068e-05,true,0x3F,false,
"I2C","data",3.73514176,8.068e-05,true,,,0x14
"I2C","stop",3.735232,2.00000004e-08,,,,
"I2C","start",3.73523712,2.00000004e-08,,,,
"I2C","address",3.73524664,8.068e-05,true,0x3F,true,
"I2C","data",3.73533214,8.068e-05,false,,,0x10
"I2C","stop",3.73542238,1.99999999e-08,,,,
"I2C","start",3.73707654,2.00000004e-08,,,,
"I2C","address",3.73708604,8.07e-05,true,0x3F,false,
"I2C","data",3.73717156,8.068e-05,true,,,0x14
"I2C","stop",3.7372618,1.99999999e-08,,,,
"I2C","start",3.73726686,1.99999999e-08,,,,
"I2C","address",3.73727638,8.068e-05,true,0x3F,true,
"I2C","data",3.73736186,8.07e-05,false,,,0x00
"I2C","stop",3.73745212,1.99999999e-08,,,,
"I2C","start",3.73745798,2.00000004e-08,,,,
"I2C","address",3.73746748,8.068e-05,true,0x3F,false,
"I2C","data",3.73755298,8.068e-05,true,,,0x14
"I2C","stop",3.73764322,2.00000004e-08,,,,
"I2C","start",3.737648,1.99999999e-08,,,,
"I2C","address",3.7376575,8.07e-05,true,0x3F,true,
"I2C","data",3.737743,8.07e-05,false,,,0x00
"I2C","stop",3.73783326,1.99999999e-08,,,,
"I2C","start",3.73783846,2.00000004e-08,,,,
"I2C","address",3.73784796,8.068e-05,true,0x3F,false,
"I2C","data",3.73793346,8.068e-05,true,,,0x15
"I2C","stop",3.7380237,2.00000004e-08,,,,
"I2C","start",3.73802848,1.99999999e-08,,,,
"I2C","address",3.73803798,8.07e-05,true,0x3F,true,
"I2C","data",3.73812348,8.07e-05,true,,,0x32
"I2C","data",3.73820898,8.07e-05,true,,,0x32
"I2C","data",3.73829448,8.068e-05,true,,,0x54
"I2C","data",3.73837998,8.068e-05,true,,,0x2D
"I2C","data",3.73846548,8.068e-05,true,,,0x33
"I2C","data",3.73855098,8.068e-05,true,,,0x20
"I2C","data",3.73863648,8.068e-05,true,,,0x4C
"I2C","data",3.73872198,8.068e-05,true,,,0x45
"I2C","data",3.73880748,8.068e-05,true,,,0x44
"I2C","data",3.73889298,8.068e-05,true,,,0x0A
"I2C","data",3.73897848,8.068e-05,true,,,0x20
"I2C","data",3.73906398,8.068e-05,true,,,0x20
"I2C","data",3.73914948,8.068e-05,true,,,0x00
"I2C","data",3.73923498,8.068e-05,true,,,0x00
"I2C","data",3.73932048,8.068e-05,true,,,0x00
"I2C","data",3.73940598,8.068e-05,false,,,0xFF
"I2C","stop",3.73949622,1.99999999e-08,,,,
"I2C","start",3.73950166,1.99999995e-08,,,,
"I2C","address",3.73951116,8.068e-05,true,0x3F,false,
"I2C","data",3.73959666,8.068e-05,true,,,0x15
"I2C","data",3.73968216,8.068e-05,true,,,0x70
"I2C","stop",3.7397724,1.99999995e-08,,,,
"I2C","start",3.73977738,1.99999999e-08,,,,
"I2C","address",3.73978688,8.068e-05,true,0x3F,false,
"I2C","data",3.73987238,8.068e-05,true,,,0x27
"I2C","data",3.73995788,8.068e-05,true,,,0x04
"I2C","stop",3.74004812,1.99999999e-08,,,,
"I2C","start",3.74005418,1.99999999e-08,,,,
"I2C","address",3.7400637,8.068e-05,true,0x3F,false,
"I2C","data",3.7401492,8.068e-05,true,,,0x14
"I2C","stop",3.74023944,2.00000004e-08,,,,
"I2C","start",3.74024434,2.00000004e-08,,,,
"I2C","address",3.74025386,8.068e-05,true,0x3F,true,
"I2C","data",3.74033936,8.068e-05,false,,,0x00
"I2C","stop",3.7404296,1.99999999e-08,,,,
"I2C","start",3.7404347,2.00000004e-08,,,,
"I2C","address",3.74044422,8.068e-05,true,0x3F,false,
"I2C","data",3.7405297,8.07e-05,true,,,0x14
"I2C","data",3.7406152,8.07e-05,true,,,0x10
"I2C","stop",3.74070546,1.99999999e-08,,,,
"I2C","start",3.74215066,1.99999995e-08,,,,
"I2C","address",3.74216016,8.068e-05,true,0x3F,false,
"I2C","data",3.74224566,8.068e-05,true,,,0x14
"I2C","stop",3.74233592,1.99999999e-08,,,,
"I2C","start",3.742341,1.99999995e-08,,,,
"I2C","address",3.7423505,8.07e-05,true,0x3F,true,
"I2C","data",3.742436,8.07e-05,false,,,0x00
"I2C","stop",3.74252626,1.99999999e-08,,,,
"I2C","start",3.74253124,1.99999999e-08,,,,
"I2C","address",3.74254074,8.068e-05,true,0x3F,false,
"I2C","data",3.74262624,8.068e-05,true,,,0x14
"I2C","stop",3.74271648,1.99999999e-08,,,,
"I2C","start",3.7427213,1.99999999e-08,,,,
"I2C","address",3.7427308,8.07e-05,true,0x3F,true,
"I2C","data",3.7428163,8.07e-05,false,,,0x00
"I2C","stop",3.74290656,1.99999999e-08,,,,
"I2C","start",3.74291174,1.99999999e-08,,,,
"I2C","address",3.74292124,8.07e-05,true,0x3F,false,
"I2C","data",3.74300674,8.07e-05,true,,,0x27
"I2C","data",3.74309224,8.07e-05,true,,,0xF1
"I2C","stop",3.7431825,1.99999999e-08,,,,
"I2C","start",3.74318776,1.99999995e-08,,,,
"I2C","address",3.74319726,8.07e-05,true,0x3F,false,
"I2C","data",3.74328276,8.068e-05,true,,,0x14
"I2C","stop",3.74337302,1.99999999e-08,,,,
"I2C","start",3.74337778,2.00000004e-08,,,,
"I2C","address",3.7433873,8.068e-05,true,0x3F,true,
"I2C","data",3.7434728,8.068e-05,false,,,0x00
"I2C","stop",3.74356304,1.99999999e-08,,,,
"I2C","start",3.74356818,1.99999995e-08,,,,
"I2C","address",3.74357768,8.068e-05,true,0x3F,false,
"I2C","data",3.74366318,8.068e-05,true,,,0x14
"I2C","data",3.74374868,8.068e-05,true,,,0x10
"I2C","stop",3.74383894,2.00000004e-08,,,,
"I2C","start",3.74516348,1.99999995e-08,,,,
"I2C","address",3.745173,8.068e-05,true,0x3F,false,
"I2C","data",3.7452585,8.068e-05,true,,,0x14
"I2C","stop",3.74534874,2.00000004e-08,,,,
"I2C","start",3.7453539,1.99999999e-08,,,,
"I2C","address",3.7453634,8.068e-05,true,0x3F,true,
"I2C","data",3.7454489,8.068e-05,false,,,0x10
"I2C","stop",3.74553916,2.00000004e-08,,,,
"I2C","start",3.74722456,2.00000004e-08,,,,
"I2C","address",3.74723406,8.07e-05,true,0x3F,false,
"I2C","data",3.74731956,8.07e-05,true,,,0x14
"I2C","stop",3.74740982,1.99999995e-08,,,,
"I2C","start",3.74741514,1.99999999e-08,,,,
"I2C","address",3.74742464,8.068e-05,true,0x3F,true,
"I2C","data",3.74751014,8.068e-05,false,,,0x10
"I2C","stop",3.74760038,1.99999999e-08,,,,
"I2C","start",3.74925428,1.99999999e-08,,,,
"I2C","address",3.74926378,8.068e-05,true,0x3F,false,
"I2C","data",3.74934928,8.068e-05,true,,,0x14
"I2C","stop",3.74943952,1.99999995e-08,,,,
"I2C","start",3.74944448,1.99999999e-08,,,,
"I2C","address",3.74945398,8.068e-05,true,0x3F,true,
"I2C","data",3.74953948,8.068e-05,false,,,0x10
"I2C","stop",3.74962972,1.99999995e-08,,,,
"I2C","start",3.75128378,1.99999999e-08,,,,
"I2C","address",3.75129328,8.07e-05,true,0x3F,false,
"I2C","data",3.75137878,8.068e-05,true,,,0x14
"I2C","stop",3.75146904,1.99999999e-08,,,,
"I2C","start",3.75147394,2.00000004e-08,,,,
"I2C","address",3.75148344,8.068e-05,true,0x3F,true,
"I2C","data",3.75156894,8.068e-05,false,,,0x10
"I2C","stop",3.7516592,1.99999999e-08,,,,
"I2C","start",3.75331332,1.99999999e-08,,,,
"I2C","address",3.75332282,8.068e-05,true,0x3F,false,
"I2C","data",3.75340832,8.068e-05,true,,,0x14
"I2C","stop",3.75349858,1.99999999e-08,,,,
"I2C","start",3.75350368,1.99999999e-08,,,,
"I2C","address",3.75351318,8.068e-05,true,0x3F,true,
"I2C","data",3.75359868,8.068e-05,false,,,0x10
"I2C","stop",3.75368894,1.99999999e-08,,,,
"I2C","start",3.75534316,2.00000004e-08,,,,
"I2C","address",3.75535266,8.07e-05,true,0x3F,false,
"I2C","data",3.75543816,8.07e-05,true,,,0x14
"I2C","stop",3.75552842,1.99999999e-08,,,,
"I2C","start",3.75553352,1.99999999e-08,,,,
"I2C","address",3.75554302,8.068e-05,true,0x3F,true,
"I2C","data",3.75562852,8.068e-05,false,,,0x00
"I2C","stop",3.75571876,1.99999999e-08,,,,
"I2C","start",3.75572378,2.00000004e-08,,,,
"I2C","address",3.75573328,8.07e-05,true,0x3F,false,
"I2C","data",3.75581878,8.07e-05,true,,,0x14
"I2C","stop",3.75590904,1.99999999e-08,,,,
"I2C","start",3.75591464,2.00000004e-08,,,,
"I2C","address",3.75592414,8.07e-05,true,0x3F,true,
"I2C","data",3.75600964,8.07e-05,false,,,0x00
"I2C","stop",3.7560999,1.99999999e-08,,,,
"I2C","start",3.75610502,1.99999999e-08,,,,
"I2C","address",3.75611452,8.07e-05,true,0x3F,false,
"I2C","data",3.75620002,8.068e-05,true,,,0x15
"I2C","stop",3.75629028,1.99999995e-08,,,,
"I2C","start",3.75629504,1.99999999e-08,,,,
"I2C","address",3.75630456,8.068e-05,true,0x3F,true,
"I2C","data",3.75639006,8.068e-05,true,,,0x00
"I2C","data",3.75647556,8.068e-05,true,,,0x59
"I2C","data",3.75656104,8.07e-05,true,,,0x56
"I2C","data",3.75664654,8.07e-05,true,,,0x35
"I2C","data",3.75673204,8.07e-05,true,,,0x46
"I2C","data",3.75681754,8.07e-05,true,,,0x31
"I2C","data",3.75690304,8.07e-05,true,,,0x31
"I2C","data",3.75698854,8.07e-05,true,,,0x37
"I2C","data",3.75707404,8.07e-05,true,,,0x35
"I2C","data",3.75715954,8.07e-05,true,,,0x33
"I2C","data",3.75724504,8.07e-05,true,,,0x37
"I2C","data",3.75733054,8.07e-05,true,,,0x0A
"I2C","data",3.75741604,8.07e-05,true,,,0x20
"I2C","data",3.75750154,8.07e-05,true,,,0x20
"I2C","data",3.75758704,8.07e-05,true,,,0x00
"I2C","data",3.75767254,8.07e-05,false,,,0x5C
"I2C","stop",3.7577628,1.99999999e-08,,,,
"I2C","start",3.75776824,2.00000004e-08,,,,
"I2C","address",3.75777774,8.068e-05,true,0x39,false,
"I2C","data",3.75786324,8.068e-05,true,,,0x00
"I2C","data",3.75794874,8.068e-05,true,,,0x00
"I2C","stop",3.75803898,2.00000004e-08,,,,
"I2C","start",3.7580438,2.00000004e-08,,,,
"I2C","address",3.75805332,8.068e-05,true,0x39,false,
"I2C","data",3.75813882,8.068e-05,true,,,0x07
"I2C","stop",3.75822906,1.99999999e-08,,,,
"I2C","start",3.75823384,1.99999999e-08,,,,
"I2C","address",3.75824334,8.068e-05,true,0x39,true,
"I2C","data",3.75832884,8.068e-05,false,,,0x00
"I2C","stop",3.7584191,2.00000004e-08,,,,
"I2C","start",3.75842424,1.99999995e-08,,,,
"I2C","address",3.75843374,8.068e-05,true,0x39,false,
"I2C","data",3.75851924,8.068e-05,true,,,0x07
"I2C","data",3.75860474,8.068e-05,true,,,0x04
"I2C","stop",3.75869498,1.99999995e-08,,,,
"I2C","start",3.75870012,2.00000004e-08,,,,
"I2C","address",3.75870962,8.07e-05,true,0x39,false,
"I2C","data",3.75879512,8.07e-05,true,,,0x07
"I2C","stop",3.75888538,1.99999999e-08,,,,
"I2C","start",3.75889018,2.00000004e-08,,,,
"I2C","address",3.75889968,8.068e-05,true,0x39,true,
"I2C","data",3.75898518,8.068e-05,false,,,0x04
"I2C","stop",3.75907542,2.00000004e-08,,,,
"I2C","start",3.75908054,2.00000004e-08,,,,
"I2C","address",3.75909004,8.068e-05,true,0x39,false,
"I2C","data",3.75917554,8.068e-05,true,,,0x07
"I2C","data",3.75926104,8.068e-05,true,,,0x00
"I2C","stop",3.75935128,1.99999999e-08,,,,
"I2C","start",3.93912558,2.00000004e-08,,,,
"I2C","address",3.93913508,8.07e-05,true,0x3F,false,
"I2C","data",3.93922058,8.07e-05,true,,,0x39
"I2C","data",3.93930608,8.07e-05,true,,,0x00
"I2C","stop",3.93939634,1.99999995e-08,,,,
"I2C","start",3.93940178,2.00000004e-08,,,,
"I2C","address",3.93941128,8.07e-05,true,0x3F,false,
"I2C","data",3.93949678,8.07e-05,true,,,0x40
"I2C","stop",3.93958704,1.99999995e-08,,,,
"I2C","start",3.93959198,2.00000004e-08,,,,
"I2C","address",3.93960148,8.068e-05,true,0x3F,true,
"I2C","data",3.93968698,8.068e-05,false,,,0x40
"I2C","stop",3.93977722,2.00000004e-08,,,,
"I2C","start",3.93978234,2.00000004e-08,,,,
"I2C","address",3.93979184,8.07e-05,true,0x3F,false,
"I2C","data",3.93987734,8.068e-05,true,,,0x40
"I2C","data",3.93996284,8.068e-05,true,,,0x40
"I2C","stop",3.9400531,1.99999999e-08,,,,
"I2C","start",3.94005838,1.99999999e-08,,,,
"I2C","address",3.9400679,8.068e-05,true,0x42,false,
"I2C","data",3.9401534,8.068e-05,true,,,0x7F
"I2C","data",3.9402389,8.068e-05,true,,,0x00
"I2C","stop",3.94032914,2.00000004e-08,,,,
"I2C","start",3.94033402,2.00000004e-08,,,,
"I2C","address",3.94034352,8.07e-05,true,0x42,false,
"I2C","data",3.94042902,8.07e-05,true,,,0x4A
"I2C","stop",3.94051928,1.99999999e-08,,,,
"I2C","start",3.94052406,1.99999995e-08,,,,
"I2C","address",3.94053356,8.068e-05,true,0x42,true,
"I2C","data",3.94061906,8.068e-05,false,,,0x00
"I2C","stop",3.9407093,1.99999999e-08,,,,
"I2C","start",3.94071448,1.99999999e-08,,,,
"I2C","address",3.94072398,8.07e-05,true,0x42,false,
"I2C","data",3.94080948,8.07e-05,true,,,0x4A
"I2C","data",3.94089498,8.07e-05,true,,,0x10
"I2C","stop",3.94098524,2.00000004e-08,,,,
"I2C","start",3.94099018,1.99999999e-08,,,,
"I2C","address",3.94099968,8.07e-05,true,0x42,false,
"I2C","data",3.94108518,8.07e-05,true,,,0x03
"I2C","data",3.94117068,8.07e-05,true,,,0x18
"I2C","stop",3.94126094,2.00000004e-08,,,,
"I2C","start",3.94126646,1.99999999e-08,,,,
"I2C","address",3.94127596,8.068e-05,true,0x42,false,
"I2C","data",3.94136146,8.068e-05,true,,,0x3D
"I2C","stop",3.9414517,1.99999999e-08,,,,
"I2C","start",3.94145648,2.00000004e-08,,,,
"I2C","address",3.94146598,8.07e-05,true,0x42,true,
"I2C","data",3.94155148,8.068e-05,false,,,0x20
"I2C","stop",3.94164174,1.99999999e-08,,,,
"I2C","start",3.94164678,1.99999999e-08,,,,
"I2C","address",3.94165628,8.068e-05,true,0x42,false,
"I2C","data",3.94174178,8.068e-05,true,,,0x3D
"I2C","data",3.94182728,8.068e-05,true,,,0x20
"I2C","stop",3.94191754,1.99999999e-08,,,,
"I2C","start",3.94802042,1.99999999e-08,,,,
"I2C","address",3.94802992,8.068e-05,true,0x3F,false,
"I2C","data",3.94811542,8.068e-05,true,,,0x39
"I2C","data",3.94820092,8.068e-05,true,,,0x00
"I2C","stop",3.94829116,1.99999999e-08,,,,
"I2C","start",3.9482965,1.99999999e-08,,,,
"I2C","address",3.948306,8.068e-05,true,0x3F,false,
"I2C","data",3.9483915,8.068e-05,true,,,0x25
"I2C","data",3.948477,8.068e-05,true,,,0x1D
"I2C","stop",3.94856726,1.99999999e-08,,,,
"I2C","start",3.94857234,1.99999999e-08,,,,
"I2C","address",3.94858186,8.068e-05,true,0x3F,false,
"I2C","data",3.94866734,8.07e-05,true,,,0x26
"I2C","data",3.94875286,8.068e-05,true,,,0x00
"I2C","stop",3.9488431,1.99999999e-08,,,,
"I2C","start",3.94884816,1.99999999e-08,,,,
"I2C","address",3.94885766,8.068e-05,true,0x42,false,
"I2C","data",3.94894316,8.068e-05,true,,,0x7F
"I2C","data",3.94902866,8.068e-05,true,,,0x00
"I2C","stop",3.9491189,1.99999995e-08,,,,
"I2C","start",3.94912386,2.00000004e-08,,,,
"I2C","address",3.94913336,8.07e-05,true,0x42,false,
"I2C","data",3.94921886,8.07e-05,true,,,0x05
"I2C","stop",3.94930912,1.99999999e-08,,,,
"I2C","start",3.94931418,1.99999999e-08,,,,
"I2C","address",3.94932368,8.07e-05,true,0x42,true,
"I2C","data",3.94940918,8.07e-05,false,,,0x4C
"I2C","stop",3.94949944,1.99999999e-08,,,,
"I2C","start",3.94950454,1.99999999e-08,,,,
"I2C","address",3.94951404,8.07e-05,true,0x42,false,
"I2C","data",3.94959954,8.07e-05,true,,,0x05
"I2C","data",3.94968504,8.07e-05,true,,,0x4C
"I2C","stop",3.9497753,1.99999999e-08,,,,
"I2C","start",3.94978024,1.99999999e-08,,,,
"I2C","address",3.94978974,8.068e-05,true,0x42,false,
"I2C","data",3.94987524,8.068e-05,true,,,0x05
"I2C","stop",3.94996548,1.99999999e-08,,,,
"I2C","start",3.94997026,1.99999999e-08,,,,
"I2C","address",3.94997976,8.068e-05,true,0x42,true,
"I2C","data",3.95006526,8.068e-05,false,,,0x4C
"I2C","stop",3.95015552,1.99999995e-08,,,,
"I2C","start",3.95016046,1.99999999e-08,,,,
"I2C","address",3.95016996,8.068e-05,true,0x42,false,
"I2C","data",3.95025546,8.068e-05,true,,,0x05
"I2C","data",3.95034096,8.068e-05,true,,,0x4D
"I2C","stop",3.95043122,1.99999999e-08,,,,
"I2C","start",3.95043646,1.99999995e-08,,,,
"I2C","address",3.95044596,8.07e-05,true,0x2A,false,
"I2C","data",3.95053146,8.07e-05,true,,,0x00
"I2C","data",3.95061696,8.07e-05,true,,,0x00
"I2C","stop",3.95070722,1.99999999e-08,,,,
"I2C","start",3.950712,1.99999999e-08,,,,
"I2C","address",3.9507215,8.068e-05,true,0x2A,false,
"I2C","data",3.950807,8.068e-05,true,,,0x19
"I2C","data",3.9508925,8.068e-05,true,,,0x90
"I2C","stop",3.95098274,1.99999995e-08,,,,
"I2C","start",3.95098774,1.99999999e-08,,,,
"I2C","address",3.95099724,8.07e-05,true,0x2A,false,
"I2C","data",3.95108274,8.07e-05,true,,,0x1A
"I2C","data",3.95116824,8.07e-05,true,,,0x03
"I2C","stop",3.9512585,2.00000004e-08,,,,
"I2C","start",3.95126372,1.99999999e-08,,,,
"I2C","address",3.95127322,8.07e-05,true,0x2A,false,
"I2C","data",3.95135872,8.07e-05,true,,,0x1B
"I2C","data",3.95144422,8.07e-05,true,,,0x80
"I2C","stop",3.95153448,2.00000004e-08,,,,
"I2C","start",3.95153962,1.99999999e-08,,,,
"I2C","address",3.95154914,8.068e-05,true,0x2A,false,
"I2C","data",3.95163464,8.068e-05,true,,,0x1C
"I2C","data",3.95172014,8.068e-05,true,,,0x02
"I2C","stop",3.95181038,1.99999999e-08,,,,
"I2C","start",3.95181528,1.99999999e-08,,,,
"I2C","address",3.95182478,8.068e-05,true,0x2A,false,
"I2C","data",3.95191028,8.068e-05,true,,,0x1D
"I2C","data",3.95199578,8.068e-05,true,,,0x10
"I2C","stop",3.95208604,1.99999999e-08,,,,
"I2C","start",3.95209102,1.99999995e-08,,,,
"I2C","address",3.95210052,8.07e-05,true,0x2A,false,
"I2C","data",3.95218602,8.07e-05,true,,,0x1E
"I2C","data",3.95227152,8.07e-05,true,,,0x00
"I2C","stop",3.95236178,1.99999999e-08,,,,
"I2C","start",3.952367,1.99999999e-08,,,,
"I2C","address",3.9523765,8.07e-05,true,0x2A,false,
"I2C","data",3.952462,8.07e-05,true,,,0x1F
"I2C","data",3.9525475,8.07e-05,true,,,0x60
"I2C","stop",3.95263776,1.99999999e-08,,,,
"I2C","start",3.95264278,1.99999999e-08,,,,
"I2C","address",3.95265228,8.068e-05,true,0x2A,false,
"I2C","data",3.95273778,8.068e-05,true,,,0x20
"I2C","data",3.95282328,8.068e-05,true,,,0x00
"I2C","stop",3.95291352,1.99999999e-08,,,,
"I2C","start",3.9529186,2.00000004e-08,,,,
"I2C","address",3.9529281,8.068e-05,true,0x2A,false,
"I2C","data",3.9530136,8.068e-05,true,,,0x21
"I2C","data",3.9530991,8.068e-05,true,,,0xA0
"I2C","stop",3.95318934,1.99999999e-08,,,,
"I2C","start",3.95319436,1.99999999e-08,,,,
"I2C","address",3.95320386,8.07e-05,true,0x2A,false,
"I2C","data",3.95328936,8.068e-05,true,,,0x22
"I2C","data",3.95337486,8.068e-05,true,,,0x00
"I2C","stop",3.95346512,1.99999999e-08,,,,
"I2C","start",3.95347034,1.99999999e-08,,,,
"I2C","address",3.95347986,8.068e-05,true,0x2A,false,
"I2C","data",3.95356536,8.068e-05,true,,,0x14
"I2C","data",3.95365084,8.07e-05,true,,,0xE0
"I2C","stop",3.9537411,2.00000004e-08,,,,
"I2C","start",3.95374606,2.00000004e-08,,,,
"I2C","address",3.95375556,8.07e-05,true,0x2A,false,
"I2C","data",3.95384106,8.07e-05,true,,,0x15
"I2C","data",3.95392656,8.07e-05,true,,,0x01
"I2C","stop",3.95401682,1.99999995e-08,,,,
"I2C","start",3.9540228,1.99999999e-08,,,,
"I2C","address",3.9540323,8.07e-05,true,0x2A,false,
"I2C","data",3.9541178,8.07e-05,true,,,0x16
"I2C","data",3.9542033,8.07e-05,true,,,0x0A
"I2C","stop",3.95429356,1.99999999e-08,,,,
"I2C","start",3.95429892,2.00000004e-08,,,,
"I2C","address",3.95430842,8.07e-05,true,0x2A,false,
"I2C","data",3.95439392,8.07e-05,true,,,0x17
"I2C","data",3.95447942,8.07e-05,true,,,0x02
"I2C","stop",3.95456968,1.99999999e-08,,,,
"I2C","start",3.9545748,1.99999999e-08,,,,
"I2C","address",3.9545843,8.07e-05,true,0x2A,false,
"I2C","data",3.9546698,8.07e-05,true,,,0x18
"I2C","data",3.9547553,8.07e-05,true,,,0x2D
"I2C","stop",3.95484556,2.00000004e-08,,,,
"I2C","start",3.95485052,1.99999999e-08,,,,
"I2C","address",3.95486004,8.068e-05,true,0x42,false,
"I2C","data",3.95494554,8.068e-05,true,,,0x7F
"I2C","data",3.95503104,8.068e-05,true,,,0x00
"I2C","stop",3.95512128,1.99999999e-08,,,,
"I2C","start",3.95512626,1.99999999e-08,,,,
"I2C","address",3.95513576,8.068e-05,true,0x42,false,
"I2C","data",3.95522126,8.068e-05,true,,,0x1E
"I2C","data",3.95530676,8.068e-05,true,,,0xC4
"I2C","stop",3.95539702,1.99999999e-08,,,,
"I2C","start",3.95540228,1.99999999e-08,,,,
"I2C","address",3.95541178,8.07e-05,true,0x42,false,
"I2C","data",3.95549728,8.07e-05,true,,,0x1F
"I2C","data",3.95558278,8.07e-05,true,,,0x00
"I2C","stop",3.95567304,1.99999999e-08,,,,
"I2C","start",3.955678,2.00000004e-08,,,,
"I2C","address",3.9556875,8.07e-05,true,0x42,false,
"I2C","data",3.955773,8.07e-05,true,,,0x20
"I2C","data",3.9558585,8.07e-05,true,,,0x00
"I2C","stop",3.95594876,1.99999995e-08,,,,
"I2C","start",3.95595372,1.99999999e-08,,,,
"I2C","address",3.95596322,8.07e-05,true,0x42,false,
"I2C","data",3.95604872,8.07e-05,true,,,0x21
"I2C","data",3.95613422,8.07e-05,true,,,0x0F
"I2C","stop",3.95622448,1.99999999e-08,,,,
"I2C","start",3.95622936,1.99999999e-08,,,,
"I2C","address",3.95623886,8.07e-05,true,0x42,false,
"I2C","data",3.95632436,8.07e-05,true,,,0x22
"I2C","data",3.95640986,8.068e-05,true,,,0x00
"I2C","stop",3.95650012,2.00000004e-08,,,,
"I2C","start",3.95650538,1.99999999e-08,,,,
"I2C","address",3.95651488,8.07e-05,true,0x42,false,
"I2C","data",3.95660038,8.068e-05,true,,,0x23
"I2C","data",3.95668588,8.068e-05,true,,,0x00
"I2C","stop",3.95677614,1.99999999e-08,,,,
"I2C","start",3.95678104,1.99999995e-08,,,,
"I2C","address",3.95679056,8.068e-05,true,0x42,false,
"I2C","data",3.95687606,8.068e-05,true,,,0x1B
"I2C","data",3.95696154,8.07e-05,true,,,0x37
"I2C","stop",3.9570518,2.00000004e-08,,,,
"I2C","start",3.9570568,1.99999999e-08,,,,
"I2C","address",3.9570663,8.068e-05,true,0x42,false,
"I2C","data",3.9571518,8.068e-05,true,,,0x3B
"I2C","stop",3.95724206,1.99999999e-08,,,,
"I2C","start",3.95724682,1.99999999e-08,,,,
"I2C","address",3.95725632,8.07e-05,true,0x42,true,
"I2C","data",3.95734182,8.07e-05,false,,,0x00
"I2C","stop",3.95743208,2.00000004e-08,,,,
"I2C","start",3.95743734,1.99999999e-08,,,,
"I2C","address",3.95744684,8.068e-05,true,0x42,false,
"I2C","data",3.95753234,8.068e-05,true,,,0x3B
"I2C","data",3.95761784,8.068e-05,true,,,0x00
"I2C","stop",3.95770808,1.99999999e-08,,,,
"I2C","start",3.9577131,2.00000004e-08,,,,
"I2C","address",3.9577226,8.07e-05,true,0x42,false,
"I2C","data",3.9578081,8.07e-05,true,,,0x3B
"I2C","stop",3.95789836,1.99999999e-08,,,,
"I2C","start",3.9579032,1.99999999e-08,,,,
"I2C","address",3.9579127,8.068e-05,true,0x42,true,
"I2C","data",3.9579982,8.068e-05,false,,,0x00
"I2C","stop",3.95808844,1.99999999e-08,,,,
"I2C","start",3.95809342,1.99999995e-08,,,,
"I2C","address",3.95810292,8.068e-05,true,0x42,false,
"I2C","data",3.95818842,8.068e-05,true,,,0x3B
"I2C","data",3.95827392,8.068e-05,true,,,0x02
"I2C","stop",3.95836416,1.99999995e-08,,,,
"I2C","start",3.9583696,1.99999999e-08,,,,
"I2C","address",3.95837912,8.068e-05,true,0x42,false,
"I2C","data",3.95846462,8.068e-05,true,,,0x33
"I2C","stop",3.95855486,1.99999995e-08,,,,
"I2C","start",3.95855964,2.00000004e-08,,,,
"I2C","address",3.95856914,8.068e-05,true,0x42,true,
"I2C","data",3.95865464,8.068e-05,false,,,0x04
"I2C","stop",3.9587449,1.99999999e-08,,,,
"I2C","start",3.95874998,1.99999999e-08,,,,
"I2C","address",3.95875948,8.068e-05,true,0x42,false,
"I2C","data",3.95884498,8.068e-05,true,,,0x33
"I2C","data",3.95893048,8.068e-05,true,,,0x04
"I2C","stop",3.95902072,1.99999999e-08,,,,
"I2C","start",3.95902574,1.99999999e-08,,,,
"I2C","address",3.95903524,8.07e-05,true,0x42,false,
"I2C","data",3.95912074,8.07e-05,true,,,0x33
"I2C","stop",3.959211,2.00000004e-08,,,,
"I2C","start",3.95921578,1.99999999e-08,,,,
"I2C","address",3.95922528,8.068e-05,true,0x42,true,
"I2C","data",3.95931078,8.068e-05,false,,,0x04
"I2C","stop",3.95940102,1.99999995e-08,,,,
"I2C","start",3.95940618,1.99999995e-08,,,,
"I2C","address",3.95941568,8.07e-05,true,0x42,false,
"I2C","data",3.95950118,8.07e-05,true,,,0x33
"I2C","data",3.95958668,8.07e-05,true,,,0xB4
"I2C","stop",3.95967694,1.99999999e-08,,,,
"I2C","start",3.95968218,1.99999999e-08,,,,
"I2C","address",3.9596917,8.068e-05,true,0x42,false,
"I2C","data",3.9597772,8.068e-05,true,,,0x2B
"I2C","stop",3.95986744,1.99999999e-08,,,,
"I2C","start",3.95987222,2.00000004e-08,,,,
"I2C","address",3.95988172,8.068e-05,true,0x42,true,
"I2C","data",3.95996722,8.068e-05,false,,,0x17
"I2C","stop",3.96005748,1.99999999e-08,,,,
"I2C","start",3.96006248,1.99999999e-08,,,,
"I2C","address",3.96007198,8.068e-05,true,0x42,false,
"I2C","data",3.96015748,8.068e-05,true,,,0x2B
"I2C","data",3.96024298,8.068e-05,true,,,0x07
"I2C","stop",3.96033324,1.99999995e-08,,,,
"I2C","start",3.96034292,1.99999999e-08,,,,
"I2C","address",3.96035242,8.068e-05,true,0x42,false,
"I2C","data",3.96043792,8.068e-05,true,,,0x2B
"I2C","stop",3.96052816,1.99999999e-08,,,,
"I2C","start",3.960533,2.00000004e-08,,,,
"I2C","address",3.9605425,8.068e-05,true,0x42,true,
"I2C","data",3.960628,8.068e-05,false,,,0x07
"I2C","stop",3.96071824,2.00000004e-08,,,,
"I2C","start",3.96072334,1.99999999e-08,,,,
"I2C","address",3.96073284,8.068e-05,true,0x42,false,
"I2C","data",3.96081834,8.068e-05,true,,,0x2B
"I2C","data",3.96090384,8.068e-05,true,,,0x05
"I2C","stop",3.96099408,2.00000004e-08,,,,
"I2C","start",3.96099922,1.99999999e-08,,,,
"I2C","address",3.96100872,8.07e-05,true,0x42,false,
"I2C","data",3.96109422,8.07e-05,true,,,0x2B
"I2C","stop",3.96118448,1.99999999e-08,,,,
"I2C","start",3.96118926,2.00000004e-08,,,,
"I2C","address",3.96119876,8.068e-05,true,0x42,true,
"I2C","data",3.96128426,8.068e-05,false,,,0x05
"I2C","stop",3.9613745,2.00000004e-08,,,,
"I2C","start",3.96137974,1.99999999e-08,,,,
"I2C","address",3.96138924,8.068e-05,true,0x42,false,
"I2C","data",3.96147474,8.068e-05,true,,,0x2B
"I2C","data",3.96156024,8.068e-05,true,,,0x07
"I2C","stop",3.96165048,2.00000004e-08,,,,
"I2C","start",3.96165578,1.99999999e-08,,,,
"I2C","address",3.9616653,8.068e-05,true,0x42,false,
"I2C","data",3.9617508,8.068e-05,true,,,0x2A
"I2C","stop",3.96184104,1.99999999e-08,,,,
"I2C","start",3.96184582,1.99999999e-08,,,,
"I2C","address",3.96185532,8.068e-05,true,0x42,true,
"I2C","data",3.96194082,8.068e-05,false,,,0x40
"I2C","stop",3.96203108,1.99999995e-08,,,,
"I2C","start",3.9620362,1.99999999e-08,,,,
"I2C","address",3.9620457,8.07e-05,true,0x42,false,
"I2C","data",3.9621312,8.07e-05,true,,,0x2A
"I2C","data",3.9622167,8.07e-05,true,,,0x40
"I2C","stop",3.96230696,2.00000004e-08,,,,
"I2C","start",3.96232406,2.00000004e-08,,,,
"I2C","address",3.96233356,8.068e-05,true,0x42,false,
"I2C","data",3.96241906,8.068e-05,true,,,0x2A
"I2C","stop",3.9625093,2.00000004e-08,,,,
"I2C","start",3.96251458,1.99999999e-08,,,,
"I2C","address",3.96252408,8.068e-05,true,0x42,true,
"I2C","data",3.96260958,8.068e-05,false,,,0x40
"I2C","stop",3.96269982,1.99999995e-08,,,,
"I2C","start",3.96270486,1.99999995e-08,,,,
"I2C","address",3.96271436,8.07e-05,true,0x42,false,
"I2C","data",3.96279986,8.07e-05,true,,,0x2A
"I2C","data",3.96288536,8.07e-05,true,,,0x58
"I2C","stop",3.96297562,1.99999999e-08,,,,
"I2C","start",3.96298056,1.99999999e-08,,,,
"I2C","address",3.96299006,8.07e-05,true,0x42,false,
"I2C","data",3.96307556,8.068e-05,true,,,0x0A
"I2C","data",3.96316106,8.068e-05,true,,,0x02
"I2C","stop",3.96325132,1.99999999e-08,,,,
"I2C","start",3.9632563,1.99999999e-08,,,,
"I2C","address",3.9632658,8.068e-05,true,0x42,false,
"I2C","data",3.9633513,8.068e-05,true,,,0x0F
"I2C","data",3.9634368,8.068e-05,true,,,0x00
"I2C","stop",3.96352706,1.99999999e-08,,,,
"I2C","start",3.96353232,1.99999999e-08,,,,
"I2C","address",3.96354182,8.07e-05,true,0x42,false,
"I2C","data",3.96362732,8.07e-05,true,,,0x0F
"I2C","data",3.96371282,8.07e-05,true,,,0x80
"I2C","stop",3.96380308,1.99999995e-08,,,,
"I2C","start",3.96380824,1.99999995e-08,,,,
"I2C","address",3.96381774,8.07e-05,true,0x3F,false,
"I2C","data",3.96390324,8.07e-05,true,,,0x39
"I2C","data",3.96398874,8.07e-05,true,,,0x00
"I2C","stop",3.964079,1.99999999e-08,,,,
"I2C","start",3.96408382,1.99999999e-08,,,,
"I2C","address",3.96409332,8.068e-05,true,0x3F,false,
"I2C","data",3.96417882,8.068e-05,true,,,0x28
"I2C","stop",3.96426906,1.99999995e-08,,,,
"I2C","start",3.96427384,1.99999999e-08,,,,
"I2C","address",3.96428334,8.07e-05,true,0x3F,true,
"I2C","data",3.96436884,8.07e-05,false,,,0x00
"I2C","stop",3.9644591,1.99999999e-08,,,,
"I2C","start",3.96446432,1.99999999e-08,,,,
"I2C","address",3.96447382,8.07e-05,true,0x3F,false,
"I2C","data",3.96455932,8.07e-05,true,,,0x28
"I2C","data",3.96464482,8.07e-05,true,,,0x20
"I2C","stop",3.96473508,1.99999999e-08,,,,
"I2C","start",3.96474034,1.99999995e-08,,,,
"I2C","address",3.96474984,8.068e-05,true,0x3F,false,
"I2C","data",3.96483534,8.068e-05,true,,,0x28
"I2C","stop",3.9649256,1.99999999e-08,,,,
"I2C","start",3.96493036,2.00000004e-08,,,,
"I2C","address",3.96493988,8.068e-05,true,0x3F,true,
"I2C","data",3.96502538,8.068e-05,false,,,0x20
"I2C","stop",3.96511562,1.99999999e-08,,,,
"I2C","start",3.96512072,2.00000004e-08,,,,
"I2C","address",3.96513022,8.07e-05,true,0x3F,false,
"I2C","data",3.96521572,8.07e-05,true,,,0x28
"I2C","data",3.96530122,8.07e-05,true,,,0x20
"I2C","stop",3.96539148,1.99999999e-08,,,,
